EXPLAIN
TAG	EISPOT
TITLE	LABEL	Potentiostatic EIS	Test &Identifier
DATE	LABEL	5-7-2016	Date
TIME	LABEL	13:04:09	Time
NOTES	NOTES	1	&Notes...
	
PSTAT	PSTAT	IFC1000-05175	Potentiostat
VDC	POTEN	0.00000E+000	T	DC &Voltage (V)
FREQINIT	QUANT	1.00000E+006	Initial Fre&q. (Hz)
FREQFINAL	QUANT	1.00000E+001	Final Fre&q. (Hz)
PTSPERDEC	QUANT	1.00000E+001	Points/&decade
VAC	QUANT	5.00000E+001	AC &Voltage (mV rms)
AREA	QUANT	0.00000E+000	&Area (cm^2)
CONDIT	TWOPARAM	F	1.50000E+001	0.00000E+000	Conditionin&g	Time(s)	E(V)
DELAY	TWOPARAM	F	6.00000E+001	0.00000E+000	Init. De&lay	Time(s)	Stab.(mV/s)
SPEED	SELECTOR	0	&Optimize for:
ZGUESS	QUANT	1.00000E+002	E&stimated Z (ohms)
OCVCURVE	TABLE	40
	Pt	T	Vf	Vm	Ach	Over
	#	s	V vs. Ref.	V	V	bits
	0	0.25	-3.39646E-002	-3.39646E-002	0.00000E+000	...........
	1	0.5	-3.39650E-002	-3.39834E-002	0.00000E+000	...........
	2	0.75	-3.39672E-002	-3.40054E-002	0.00000E+000	...........
	3	1	-3.39742E-002	-3.40397E-002	0.00000E+000	...........
	4	1.25	-3.39881E-002	-3.40605E-002	0.00000E+000	...........
	5	1.5	-3.40084E-002	-3.40785E-002	0.00000E+000	...........
	6	1.75	-3.40319E-002	-3.40968E-002	0.00000E+000	...........
	7	2	-3.40551E-002	-3.41229E-002	0.00000E+000	...........
	8	2.25	-3.40770E-002	-3.41427E-002	0.00000E+000	...........
	9	2.5	-3.40983E-002	-3.41638E-002	0.00000E+000	...........
	10	2.75	-3.41196E-002	-3.41844E-002	0.00000E+000	...........
	11	3	-3.41409E-002	-3.42029E-002	0.00000E+000	...........
	12	3.25	-3.41617E-002	-3.42221E-002	0.00000E+000	...........
	13	3.5	-3.41818E-002	-3.42404E-002	0.00000E+000	...........
	14	3.75	-3.42014E-002	-3.42610E-002	0.00000E+000	...........
	15	4	-3.42206E-002	-3.42809E-002	0.00000E+000	...........
	16	4.25	-3.42399E-002	-3.42988E-002	0.00000E+000	...........
	17	4.5	-3.42591E-002	-3.43102E-002	0.00000E+000	...........
	18	4.75	-3.42775E-002	-3.43250E-002	0.00000E+000	...........
	19	5	-3.42946E-002	-3.43497E-002	0.00000E+000	...........
	20	5.25	-3.43110E-002	-3.43694E-002	0.00000E+000	...........
	21	5.5	-3.43284E-002	-3.43888E-002	0.00000E+000	...........
	22	5.75	-3.43471E-002	-3.43977E-002	0.00000E+000	...........
	23	6	-3.43657E-002	-3.44115E-002	0.00000E+000	...........
	24	6.25	-3.43827E-002	-3.44297E-002	0.00000E+000	...........
	25	6.5	-3.43981E-002	-3.44518E-002	0.00000E+000	...........
	26	6.75	-3.44138E-002	-3.44708E-002	0.00000E+000	...........
	27	7	-3.44308E-002	-3.44857E-002	0.00000E+000	...........
	28	7.25	-3.44489E-002	-3.45031E-002	0.00000E+000	...........
	29	7.5	-3.44672E-002	-3.45242E-002	0.00000E+000	...........
	30	7.75	-3.44852E-002	-3.45384E-002	0.00000E+000	...........
	31	8	-3.45030E-002	-3.45556E-002	0.00000E+000	...........
	32	8.25	-3.45204E-002	-3.45695E-002	0.00000E+000	...........
	33	8.5	-3.45372E-002	-3.45855E-002	0.00000E+000	...........
	34	8.75	-3.45533E-002	-3.46001E-002	0.00000E+000	...........
	35	9	-3.45688E-002	-3.46158E-002	0.00000E+000	...........
	36	9.25	-3.45841E-002	-3.46324E-002	0.00000E+000	...........
	37	9.5	-3.45995E-002	-3.46518E-002	0.00000E+000	...........
	38	9.75	-3.46153E-002	-3.46543E-002	0.00000E+000	...........
	39	10	-3.46308E-002	-3.46814E-002	0.00000E+000	...........
EOC	QUANT	-0.0346308	Open Circuit (V)
PSTATMODEL	IQUANT	48	Pstat Model
PSTATSECTION	LABEL	IFC1000-05175	Pstat Section
PSTATSERIALNO	LABEL	05175	Pstat Serial Number
CTRLMODE	IQUANT	1	Control Mode
IESTAB	IQUANT	0	I/E Stability
CASPEED	IQUANT	1	Control Amp Speed
CONVENTION	IQUANT	1	Current Convention
ICHRANGE	IQUANT	2	Ich Range
ICHRANGEMODE	TOGGLE	F	Ich Auto Range
ICHOFFSETENABLE	TOGGLE	T	Ich Offset Enable
ICHOFFSET	QUANT	0	Ich Offset (V)
ICHFILTER	IQUANT	4	Ich Filter
VCHRANGE	IQUANT	2	Vch Range
VCHRANGEMODE	TOGGLE	F	Vch Auto Range
VCHOFFSETENABLE	TOGGLE	T	Vch Offset Enable
VCHOFFSET	QUANT	0	Vch Offset (V)
VCHFILTER	IQUANT	4	Vch Filter
IERANGELOWERLIMIT	IQUANT	4	I/E Range Lower Limit
IERANGEMODE	TOGGLE	F	I/E AutoRange
IERANGE	IQUANT	9	I/E Range
ACHSELECT	IQUANT	4	Ach Select
CABLEID	IQUANT	14	Cable ID
DCCALDATE	LABEL	27.2.2015	DC Calibration Date
ACCALDATE	LABEL	27.2.2015	AC Calibration Date
FRAMEWORKVERSION	QUANT	6.2	Framework Version
INSTRUMENTVERSION	LABEL	3.20	Instrument Version
ZCURVE	TABLE
	Pt	Time	Freq	Zreal	Zimag	Zsig	Zmod	Zphz	Idc	Vdc	IERange
	#	s	Hz	ohm	ohm	V	ohm	°	A	V	#
	0	1	1000020	279.7278	0.7988266	1	279.7289	0.1636207	-1.020908E-007	-0.0343288	10
	1	2	794355.5	279.8158	-0.4773644	1	279.8162	-0.0977462	-1.938025E-007	-0.0342954	10
	2	2	630996.1	279.9774	-1.631394	1	279.9822	-0.3338517	-3.185486E-007	-0.0343546	10
	3	2	501269.5	280.2885	-2.721354	1	280.3017	-0.5562739	-2.888205E-007	-0.0343917	10
	4	2	398144.5	280.6746	-3.769512	1	280.6999	-0.7694467	-3.862978E-007	-0.0344612	10
	5	3	316230.5	281.114	-4.761176	1	281.1543	-0.970315	-3.36156E-007	-0.0344755	10
	6	3	251191.4	281.7834	-5.929972	1	281.8458	-1.205579	-3.191504E-007	-0.034488	10
	7	3	199628.9	282.309	-7.092956	1	282.3981	-1.439242	-3.462674E-007	-0.0344984	10
	8	3	158496.1	282.9307	-8.477825	1	283.0577	-1.716315	-3.400539E-007	-0.0345038	10
	9	4	125918	283.5218	-10.14265	1	283.7032	-2.048813	-3.617125E-007	-0.0345085	10
	10	4	100019.5	284.1449	-12.1004	1	284.4024	-2.438485	-1.469218E-006	-0.034699	10
	11	4	79511.72	285.3308	-14.00516	1	285.6743	-2.810047	-1.393084E-006	-0.0346987	10
	12	4	63105.47	285.6745	-17.56016	1	286.2137	-3.517495	-1.455976E-006	-0.0347017	10
	13	5	50214.84	286.8944	-21.123	1	287.671	-4.210883	-1.41497E-006	-0.0347022	10
	14	5	39902.34	288.3512	-25.49953	1	289.4765	-5.053645	-1.447085E-006	-0.0347038	10
	15	5	31699.22	290.1435	-30.63678	1	291.7565	-6.02763	-1.40478E-006	-0.0347051	10
	16	5	25136.72	292.3507	-36.84888	1	294.6639	-7.183872	-1.403358E-006	-0.0347027	10
	17	6	19980.47	294.9725	-44.18014	1	298.2627	-8.518279	-1.389242E-006	-0.0347053	10
	18	6	15878.91	298.1254	-52.91647	1	302.7852	-10.06502	-1.453279E-006	-0.0347029	10
	19	6	12597.66	301.829	-63.27161	1	308.3895	-11.83932	-2.062509E-007	-0.0346907	9
	20	6	10019.53	306.3621	-75.61459	1	315.5555	-13.86433	-2.060834E-007	-0.0346908	9
	21	6	7928.241	311.9391	-90.70049	1	324.8578	-16.2125	-1.603799E-007	-0.0346756	9
	22	7	6307.871	318.4484	-108.3007	1	336.3605	-18.78259	-1.539191E-007	-0.0346763	9
	23	7	5034.722	326.0825	-128.9057	1	350.6372	-21.56969	-3.335237E-008	-0.0346703	9
	24	7	3993.056	335.3797	-154.1732	1	369.1191	-24.68812	-3.351233E-008	-0.0346696	9
	25	7	3144.055	346.7492	-185.4208	1	393.2123	-28.13521	-3.45532E-008	-0.0346718	9
	26	8	2519.531	359.1796	-220.0372	1	421.2201	-31.49207	-3.019772E-008	-0.0346745	9
	27	8	2000.762	374.4283	-263.0842	1	457.6132	-35.09299	-3.07829E-008	-0.0346711	9
	28	8	1580.669	392.8289	-316.0387	1	504.1776	-38.81737	-3.149744E-008	-0.0346701	9
	29	8	1253.634	414.3033	-378.8082	1	561.3759	-42.43748	-2.909211E-008	-0.0346724	9
	30	9	1000.702	439.0538	-452.1615	1	630.2525	-45.84262	-2.868019E-008	-0.0346702	9
	31	9	790.0281	469.9954	-545.0514	1	719.7059	-49.22895	-3.630756E-008	-0.034671	9
	32	9	628.811	506.2681	-653.925	1	826.9978	-52.253	-4.109058E-008	-0.0346732	9
	33	9	502.2321	548.9764	-782.564	1	955.919	-54.94996	-3.063241E-008	-0.0346661	9
	34	9	400.1524	601.4884	-938.8034	1	1114.962	-57.35244	-4.639976E-008	-0.0346681	9
	35	10	315.5048	669.4482	-1136.711	1	1319.194	-59.5047	-2.112326E-008	-0.0346651	9
	36	10	252.0161	749.4244	-1362.082	1	1554.639	-61.18018	-4.555091E-008	-0.0346699	9
	37	10	200.3205	851.8716	-1637.968	1	1846.246	-62.52204	-4.478758E-008	-0.0346703	9
	38	10	158.0056	986.178	-1980.011	1	2212.01	-63.52362	-2.212878E-008	-0.0346641	9
	39	11	125.558	1152.591	-2375.893	1	2640.707	-64.1211	-4.818581E-008	-0.0346691	9
	40	11	99.734	1365.786	-2845.792	1	3156.565	-64.36217	-3.988154E-008	-0.0346657	9
	41	11	79.44915	1631.185	-3387.326	1	3759.62	-64.28661	-3.0596E-008	-0.0346775	8
	42	11	63.34459	1973.608	-4018.071	1	4476.609	-63.84052	-2.32243E-008	-0.0346745	8
	43	11	49.86702	2439.923	-4786.217	1	5372.253	-62.98837	-1.724551E-008	-0.0346749	8
	44	12	38.42213	3110.774	-5750.651	1	6538.112	-61.58914	-1.675888E-008	-0.0346799	8
	45	12	31.25	3803.7	-6613.397	1	7629.23	-60.09461	-1.170043E-008	-0.0346775	8
	46	12	24.93351	4671.465	-7611.714	1	8930.889	-58.46171	-1.237975E-008	-0.0346771	8
	47	13	20.03205	5749.23	-8649.167	1	10385.65	-56.38742	-1.419599E-008	-0.0346763	8
	48	13	15.625	7218.09	-9856.52	1	12216.87	-53.78407	-8.980249E-009	-0.0346792	8
	49	13	12.46675	8815.873	-10940.56	1	14050.46	-51.13824	-3.814426E-009	-0.034677	8
	50	14	9.9734	10639.87	-11951.13	1	16001.13	-48.32192	-2.205266E-009	-0.0346765	8
