EXPLAIN
TAG	EISPOT
TITLE	LABEL	Potentiostatic EIS	Test &Identifier
DATE	LABEL	5-7-2016	Date
TIME	LABEL	13:05:07	Time
NOTES	NOTES	1	&Notes...
	
PSTAT	PSTAT	IFC1000-05175	Potentiostat
VDC	POTEN	0.00000E+000	T	DC &Voltage (V)
FREQINIT	QUANT	1.00000E+006	Initial Fre&q. (Hz)
FREQFINAL	QUANT	1.00000E+001	Final Fre&q. (Hz)
PTSPERDEC	QUANT	1.00000E+001	Points/&decade
VAC	QUANT	5.00000E+001	AC &Voltage (mV rms)
AREA	QUANT	0.00000E+000	&Area (cm^2)
CONDIT	TWOPARAM	F	1.50000E+001	0.00000E+000	Conditionin&g	Time(s)	E(V)
DELAY	TWOPARAM	F	6.00000E+001	0.00000E+000	Init. De&lay	Time(s)	Stab.(mV/s)
SPEED	SELECTOR	0	&Optimize for:
ZGUESS	QUANT	1.00000E+002	E&stimated Z (ohms)
OCVCURVE	TABLE	40
	Pt	T	Vf	Vm	Ach	Over
	#	s	V vs. Ref.	V	V	bits
	0	0.25	8.16441E-003	8.16441E-003	0.00000E+000	...........
	1	0.5	8.17139E-003	8.52979E-003	0.00000E+000	...........
	2	0.75	8.21490E-003	8.91017E-003	0.00000E+000	...........
	3	1	8.34019E-003	9.27704E-003	0.00000E+000	...........
	4	1.25	8.56857E-003	9.62320E-003	0.00000E+000	...........
	5	1.5	8.87760E-003	9.96017E-003	0.00000E+000	...........
	6	1.75	9.22495E-003	1.02796E-002	0.00000E+000	...........
	7	2	9.57744E-003	1.05922E-002	0.00000E+000	...........
	8	2.25	9.91940E-003	1.09046E-002	0.00000E+000	...........
	9	2.5	1.02478E-002	1.12003E-002	0.00000E+000	...........
	10	2.75	1.05648E-002	1.14879E-002	0.00000E+000	...........
	11	3	1.08721E-002	1.17661E-002	0.00000E+000	...........
	12	3.25	1.11699E-002	1.20336E-002	0.00000E+000	...........
	13	3.5	1.14579E-002	1.22732E-002	0.00000E+000	...........
	14	3.75	1.17347E-002	1.25246E-002	0.00000E+000	...........
	15	4	1.19993E-002	1.27505E-002	0.00000E+000	...........
	16	4.25	1.22522E-002	1.29681E-002	0.00000E+000	...........
	17	4.5	1.24943E-002	1.31960E-002	0.00000E+000	...........
	18	4.75	1.27273E-002	1.34244E-002	0.00000E+000	...........
	19	5	1.29547E-002	1.36460E-002	0.00000E+000	...........
	20	5.25	1.31799E-002	1.38637E-002	0.00000E+000	...........
	21	5.5	1.34038E-002	1.40808E-002	0.00000E+000	...........
	22	5.75	1.36257E-002	1.42934E-002	0.00000E+000	...........
	23	6	1.38448E-002	1.44933E-002	0.00000E+000	...........
	24	6.25	1.40599E-002	1.46875E-002	0.00000E+000	...........
	25	6.5	1.42695E-002	1.48836E-002	0.00000E+000	...........
	26	6.75	1.44732E-002	1.50779E-002	0.00000E+000	...........
	27	7	1.46721E-002	1.52696E-002	0.00000E+000	...........
	28	7.25	1.48677E-002	1.54538E-002	0.00000E+000	...........
	29	7.5	1.50606E-002	1.56319E-002	0.00000E+000	...........
	30	7.75	1.52500E-002	1.58100E-002	0.00000E+000	...........
	31	8	1.54352E-002	1.59782E-002	0.00000E+000	...........
	32	8.25	1.56156E-002	1.61414E-002	0.00000E+000	...........
	33	8.5	1.57910E-002	1.63051E-002	0.00000E+000	...........
	34	8.75	1.59613E-002	1.64602E-002	0.00000E+000	...........
	35	9	1.61270E-002	1.66145E-002	0.00000E+000	...........
	36	9.25	1.62885E-002	1.67659E-002	0.00000E+000	...........
	37	9.5	1.64462E-002	1.69149E-002	0.00000E+000	...........
	38	9.75	1.66008E-002	1.70635E-002	0.00000E+000	...........
	39	10	1.67526E-002	1.72057E-002	0.00000E+000	...........
EOC	QUANT	0.0167526	Open Circuit (V)
PSTATMODEL	IQUANT	48	Pstat Model
PSTATSECTION	LABEL	IFC1000-05175	Pstat Section
PSTATSERIALNO	LABEL	05175	Pstat Serial Number
CTRLMODE	IQUANT	1	Control Mode
IESTAB	IQUANT	0	I/E Stability
CASPEED	IQUANT	1	Control Amp Speed
CONVENTION	IQUANT	1	Current Convention
ICHRANGE	IQUANT	2	Ich Range
ICHRANGEMODE	TOGGLE	F	Ich Auto Range
ICHOFFSETENABLE	TOGGLE	T	Ich Offset Enable
ICHOFFSET	QUANT	0	Ich Offset (V)
ICHFILTER	IQUANT	4	Ich Filter
VCHRANGE	IQUANT	2	Vch Range
VCHRANGEMODE	TOGGLE	F	Vch Auto Range
VCHOFFSETENABLE	TOGGLE	T	Vch Offset Enable
VCHOFFSET	QUANT	0	Vch Offset (V)
VCHFILTER	IQUANT	4	Vch Filter
IERANGELOWERLIMIT	IQUANT	4	I/E Range Lower Limit
IERANGEMODE	TOGGLE	F	I/E AutoRange
IERANGE	IQUANT	9	I/E Range
ACHSELECT	IQUANT	4	Ach Select
CABLEID	IQUANT	14	Cable ID
DCCALDATE	LABEL	27.2.2015	DC Calibration Date
ACCALDATE	LABEL	27.2.2015	AC Calibration Date
FRAMEWORKVERSION	QUANT	6.2	Framework Version
INSTRUMENTVERSION	LABEL	3.20	Instrument Version
ZCURVE	TABLE
	Pt	Time	Freq	Zreal	Zimag	Zsig	Zmod	Zphz	Idc	Vdc	IERange
	#	s	Hz	ohm	ohm	V	ohm	°	A	V	#
	0	1	1000020	233.4096	1.104372	1	233.4122	0.2710917	1.815691E-007	0.0170242	10
	1	1	794355.5	233.3918	-0.0726618	1	233.3918	-0.0178379	3.092529E-007	0.0170733	10
	2	1	630996.1	233.5064	-1.141547	1	233.5092	-0.2801007	2.067044E-007	0.0170266	10
	3	1	501269.5	235.2102	-2.239332	1	235.2208	-0.5454713	1.809232E-007	0.0170027	10
	4	2	398144.5	235.6308	-3.180964	1	235.6523	-0.7734334	1.279986E-007	0.0169372	10
	5	2	316230.5	236.1002	-4.163388	1	236.1369	-1.010248	2.843544E-009	0.0169225	10
	6	2	251191.4	236.56	-5.231939	1	236.6178	-1.26699	-5.639108E-008	0.0169117	10
	7	2	199628.9	236.9762	-6.411246	1	237.063	-1.549724	-4.660338E-008	0.0169071	10
	8	3	158496.1	237.5121	-7.719853	1	237.6375	-1.861629	-7.930068E-008	0.0169021	10
	9	3	125918	238.0739	-9.300416	1	238.2555	-2.237137	1.83805E-009	0.0168995	10
	10	3	100019.5	238.7086	-11.16568	1	238.9696	-2.678079	-1.306968E-006	0.0167084	10
	11	3	79511.72	239.7956	-13.02612	1	240.1491	-3.109353	-1.360881E-006	0.0167049	10
	12	4	63105.47	240.2153	-16.29672	1	240.7675	-3.88112	-1.313356E-006	0.0167042	10
	13	4	50214.84	241.3219	-19.64029	1	242.1198	-4.652834	-1.325356E-006	0.016702	10
	14	4	39902.34	242.7207	-23.66092	1	243.8712	-5.56772	-1.339816E-006	0.016702	10
	15	4	31699.22	244.4182	-28.47516	1	246.0713	-6.645106	-1.328075E-006	0.0167009	10
	16	4	25136.72	246.5222	-34.24188	1	248.8889	-7.907775	-1.404523E-006	0.0167028	10
	17	5	19980.47	249.0383	-40.99607	1	252.3901	-9.34805	-1.328378E-006	0.0167037	10
	18	5	15878.91	252.1058	-49.01232	1	256.8259	-11.00173	-1.330967E-006	0.0167025	10
	19	5	12597.66	255.7548	-58.61526	1	262.3857	-12.90843	-1.354406E-006	0.016702	10
	20	5	10019.53	260.0704	-69.88432	1	269.2962	-15.04083	-1.392221E-006	0.0167008	10
	21	6	7928.241	265.3495	-83.63291	1	278.2172	-17.49382	-1.44499E-006	0.0167103	10
	22	6	6307.871	271.4006	-99.5785	1	289.0919	-20.1484	-1.48669E-006	0.0167111	10
	23	6	5034.722	278.4089	-118.3044	1	302.502	-23.02212	-1.190048E-006	0.0167357	10
	24	6	3993.056	286.5717	-141.0166	1	319.3885	-26.20093	-1.867736E-007	0.0167362	9
	25	7	3144.055	296.8605	-169.5393	1	341.8622	-29.73102	-1.795913E-007	0.0167348	9
	26	7	2519.531	308.1238	-201.2855	1	368.0437	-33.15504	-1.789151E-007	0.016734	9
	27	7	2000.762	321.9809	-240.8977	1	402.1236	-36.80288	-1.785904E-007	0.0167336	9
	28	7	1580.669	339.0109	-289.8404	1	446.0222	-40.52908	-1.800201E-007	0.0167355	9
	29	8	1253.634	359.2875	-347.981	1	500.1783	-44.08414	-1.777445E-007	0.0167349	9
	30	8	1000.702	383.3226	-415.9597	1	565.6489	-47.33826	-1.882774E-007	0.016736	9
	31	8	790.0281	414.4245	-501.871	1	650.8626	-50.45151	-1.901446E-007	0.0167351	9
	32	8	628.811	451.7108	-601.5315	1	752.2518	-53.09585	-1.874569E-007	0.0167342	9
	33	8	502.2321	497.8865	-719.1438	1	874.6764	-55.30389	-1.886639E-007	0.0167411	9
	34	9	400.1524	555.9987	-859.8417	1	1023.945	-57.11212	-2.113657E-007	0.0167374	9
	35	9	315.5048	632.9827	-1035.292	1	1213.465	-58.55818	-1.876234E-007	0.0167418	9
	36	9	252.0161	725.8083	-1230.751	1	1428.827	-59.47095	-2.072311E-007	0.0167388	9
	37	9	200.3205	846.0462	-1464.648	1	1691.446	-59.98735	-2.13117E-007	0.0167356	9
	38	9	158.0056	1004.947	-1746.075	1	2014.621	-60.07759	-1.893486E-007	0.0167379	9
	39	10	125.558	1201.54	-2059.98	1	2384.789	-59.74594	-2.17122E-007	0.0167344	9
	40	10	99.734	1451.338	-2416.147	1	2818.537	-59.0075	-2.068618E-007	0.0167389	9
	41	10	79.44915	1758.786	-2807.729	1	3313.106	-57.93662	-2.45771E-007	0.0167289	9
	42	10	63.34459	2139.525	-3229.999	1	3874.334	-56.47983	-2.174235E-007	0.0167275	8
	43	11	49.86702	2639.233	-3705.412	1	4549.246	-54.53908	-2.14527E-007	0.0167289	8
	44	11	38.42213	3316.277	-4246.722	1	5388.167	-52.01362	-2.12787E-007	0.0167284	8
	45	11	31.25	3968.977	-4664.189	1	6124.332	-49.60399	-2.044574E-007	0.0167293	8
	46	11	24.93351	4723.625	-5087.008	1	6941.922	-47.12125	-2.147469E-007	0.0167298	8
	47	12	20.03205	5583.709	-5450.109	1	7802.66	-44.30628	-2.22338E-007	0.0167283	8
	48	12	15.625	6636.135	-5785.949	1	8804.288	-41.0847	-2.182705E-007	0.0167282	8
	49	13	12.46675	7652.719	-6000.902	1	9724.96	-38.10187	-2.154372E-007	0.0167305	8
	50	13	9.9734	8680.766	-6121.457	1	10622.05	-35.19053	-2.162131E-007	0.0167297	8
