EXPLAIN
TAG	EISPOT
TITLE	LABEL	Potentiostatic EIS	Test &Identifier
DATE	LABEL	7/8/2016	Date
TIME	LABEL	13:50:58	Time
NOTES	NOTES	1	&Notes...
	
PSTAT	PSTAT	IFC1000-05175	Potentiostat
VDC	POTEN	0.00000E+000	T	DC &Voltage (V)
FREQINIT	QUANT	1.00000E+006	Initial Fre&q. (Hz)
FREQFINAL	QUANT	1.00000E+000	Final Fre&q. (Hz)
PTSPERDEC	QUANT	1.00000E+001	Points/&decade
VAC	QUANT	1.00000E+002	AC &Voltage (mV rms)
AREA	QUANT	0.00000E+000	&Area (cm^2)
CONDIT	TWOPARAM	F	1.50000E+001	0.00000E+000	Conditionin&g	Time(s)	E(V)
DELAY	TWOPARAM	F	6.00000E+001	0.00000E+000	Init. De&lay	Time(s)	Stab.(mV/s)
SPEED	SELECTOR	0	&Optimize for:
ZGUESS	QUANT	1.00000E+002	E&stimated Z (ohms)
OCVCURVE	TABLE	40
	Pt	T	Vf	Vm	Ach	Over
	#	s	V vs. Ref.	V	V	bits
	0	0.25	6.66059E-003	6.66059E-003	0.00000E+000	...........
	1	0.5	6.66240E-003	6.75489E-003	0.00000E+000	...........
	2	0.75	6.67353E-003	6.84811E-003	0.00000E+000	...........
	3	1	6.70528E-003	6.93783E-003	0.00000E+000	...........
	4	1.25	6.76270E-003	7.03014E-003	0.00000E+000	...........
	5	1.5	6.84031E-003	7.11919E-003	0.00000E+000	...........
	6	1.75	6.92845E-003	7.20761E-003	0.00000E+000	...........
	7	2	7.01972E-003	7.29538E-003	0.00000E+000	...........
	8	2.25	7.11054E-003	7.38209E-003	0.00000E+000	...........
	9	2.5	7.19987E-003	7.46640E-003	0.00000E+000	...........
	10	2.75	7.28758E-003	7.54557E-003	0.00000E+000	...........
	11	3	7.37350E-003	7.62827E-003	0.00000E+000	...........
	12	3.25	7.45752E-003	7.70926E-003	0.00000E+000	...........
	13	3.5	7.54002E-003	7.78988E-003	0.00000E+000	...........
	14	3.75	7.62159E-003	7.86865E-003	0.00000E+000	...........
	15	4	7.70246E-003	7.94621E-003	0.00000E+000	...........
	16	4.25	7.78250E-003	8.02234E-003	0.00000E+000	...........
	17	4.5	7.86144E-003	8.09698E-003	0.00000E+000	...........
	18	4.75	7.93912E-003	8.17277E-003	0.00000E+000	...........
	19	5	8.01561E-003	8.24493E-003	0.00000E+000	...........
	20	5.25	8.09103E-003	8.31655E-003	0.00000E+000	...........
	21	5.5	8.16532E-003	8.38710E-003	0.00000E+000	...........
	22	5.75	8.23840E-003	8.45780E-003	0.00000E+000	...........
	23	6	8.31037E-003	8.52759E-003	0.00000E+000	...........
	24	6.25	8.38144E-003	8.59579E-003	0.00000E+000	...........
	25	6.5	8.45177E-003	8.66467E-003	0.00000E+000	...........
	26	6.75	8.52140E-003	8.73206E-003	0.00000E+000	...........
	27	7	8.59034E-003	8.79824E-003	0.00000E+000	...........
	28	7.25	8.65856E-003	8.86352E-003	0.00000E+000	...........
	29	7.5	8.72595E-003	8.92896E-003	0.00000E+000	...........
	30	7.75	8.79247E-003	8.99292E-003	0.00000E+000	...........
	31	8	8.85821E-003	9.05724E-003	0.00000E+000	...........
	32	8.25	8.92328E-003	9.12028E-003	0.00000E+000	...........
	33	8.5	8.98774E-003	9.18249E-003	0.00000E+000	...........
	34	8.75	9.05161E-003	9.24537E-003	0.00000E+000	...........
	35	9	9.11488E-003	9.30635E-003	0.00000E+000	...........
	36	9.25	9.17756E-003	9.36621E-003	0.00000E+000	...........
	37	9.5	9.23958E-003	9.42664E-003	0.00000E+000	...........
	38	9.75	9.30085E-003	9.48511E-003	0.00000E+000	...........
	39	10	9.36134E-003	9.54268E-003	0.00000E+000	...........
EOC	QUANT	0.0093613	Open Circuit (V)
PSTATMODEL	IQUANT	48	Pstat Model
PSTATSECTION	LABEL	IFC1000-05175	Pstat Section
PSTATSERIALNO	LABEL	05175	Pstat Serial Number
CTRLMODE	IQUANT	1	Control Mode
IESTAB	IQUANT	0	I/E Stability
CASPEED	IQUANT	1	Control Amp Speed
CONVENTION	IQUANT	1	Current Convention
ICHRANGE	IQUANT	2	Ich Range
ICHRANGEMODE	TOGGLE	F	Ich Auto Range
ICHOFFSETENABLE	TOGGLE	T	Ich Offset Enable
ICHOFFSET	QUANT	0	Ich Offset (V)
ICHFILTER	IQUANT	4	Ich Filter
VCHRANGE	IQUANT	2	Vch Range
VCHRANGEMODE	TOGGLE	F	Vch Auto Range
VCHOFFSETENABLE	TOGGLE	T	Vch Offset Enable
VCHOFFSET	QUANT	0	Vch Offset (V)
VCHFILTER	IQUANT	4	Vch Filter
IERANGELOWERLIMIT	IQUANT	4	I/E Range Lower Limit
IERANGEMODE	TOGGLE	F	I/E AutoRange
IERANGE	IQUANT	9	I/E Range
ACHSELECT	IQUANT	4	Ach Select
CABLEID	IQUANT	14	Cable ID
DCCALDATE	LABEL	27.2.2015	DC Calibration Date
ACCALDATE	LABEL	27.2.2015	AC Calibration Date
FRAMEWORKVERSION	QUANT	6.2	Framework Version
INSTRUMENTVERSION	LABEL	3.20	Instrument Version
ZCURVE	TABLE
	Pt	Time	Freq	Zreal	Zimag	Zsig	Zmod	Zphz	Idc	Vdc	IERange
	#	s	Hz	ohm	ohm	V	ohm	°	A	V	#
	0	1	1000020	216.9087	1.84675	1	216.9166	0.4878016	2.914478E-007	0.0097836	10
	1	2	794355.5	216.786	0.9268067	1	216.788	0.2449502	3.652531E-007	0.0098371	10
	2	2	630996.1	216.7775	0.1950977	1	216.7776	0.0515657	1.958579E-007	0.0096825	10
	3	2	501269.5	216.8823	-0.4531064	1	216.8828	-0.1197011	8.955016E-008	0.0095858	10
	4	2	398144.5	217.0481	-1.025093	1	217.0505	-0.2705992	4.708583E-008	0.0095403	10
	5	3	316230.5	217.236	-1.552357	1	217.2415	-0.4094257	2.745256E-008	0.009497	10
	6	3	251191.4	217.4598	-2.104812	1	217.47	-0.5545533	-1.001736E-008	0.0094653	10
	7	3	199628.9	217.6336	-2.660279	1	217.6499	-0.7003291	-5.395955E-008	0.0094535	10
	8	3	158496.1	217.8244	-3.273862	1	217.849	-0.8610806	-1.48409E-007	0.009405	10
	9	4	125918	217.9929	-4.01572	1	218.0299	-1.055345	-6.800743E-008	0.0093942	10
	10	4	100019.5	218.1595	-4.930736	1	218.2152	-1.294751	-1.424852E-006	0.0091823	10
	11	4	79511.72	218.6087	-5.65272	1	218.6817	-1.481208	-1.446955E-006	0.0091787	10
	12	4	63105.47	218.3968	-7.584023	1	218.5284	-1.988848	-1.448121E-006	0.0091774	10
	13	5	50214.84	218.7074	-9.402715	1	218.9094	-2.461756	-1.45481E-006	0.0091758	10
	14	5	39902.34	219.1136	-11.61263	1	219.4212	-3.033734	-1.496035E-006	0.0091709	10
	15	5	31699.22	219.6395	-14.30214	1	220.1046	-3.725637	-1.444095E-006	0.009173	10
	16	5	25136.72	220.3266	-17.60932	1	221.0292	-4.569579	-1.444344E-006	0.0091723	10
	17	6	19980.47	221.2001	-21.54842	1	222.2472	-5.563966	-1.467848E-006	0.0091724	10
	18	6	15878.91	222.2702	-26.36065	1	223.8279	-6.763533	-1.517446E-006	0.0091753	10
	19	6	12597.66	223.5981	-32.24126	1	225.9106	-8.205093	-1.509147E-006	0.0091746	10
	20	6	10019.53	225.2455	-39.34157	1	228.6554	-9.90739	-1.532845E-006	0.0091702	10
	21	7	7928.241	227.3515	-48.17191	1	232.3989	-11.96307	-1.532458E-006	0.0091868	10
	22	7	6307.871	229.973	-58.68933	1	237.3436	-14.31637	-1.591962E-006	0.0091856	10
	23	7	5034.722	233.2141	-71.26463	1	243.8595	-16.99189	-1.29778E-006	0.0092073	10
	24	7	3993.056	237.4551	-86.90955	1	252.86	-20.10284	-1.328872E-006	0.0092071	10
	25	8	3144.055	243.0459	-106.5307	1	265.3678	-23.66857	-1.27338E-006	0.0092087	10
	26	8	2519.531	249.6604	-128.4946	1	280.7867	-27.23386	-1.30647E-006	0.0092053	10
	27	8	2000.762	258.4448	-156.0082	1	301.8813	-31.11695	-1.344802E-006	0.0092071	10
	28	8	1580.669	269.7506	-189.6585	1	329.7511	-35.1106	-1.745851E-007	0.0092078	9
	29	9	1253.634	284.7599	-229.8433	1	365.9456	-38.90865	-1.696828E-007	0.0092076	9
	30	9	1000.702	303.9211	-276.4176	1	410.822	-42.28667	-1.690346E-007	0.0092072	9
	31	9	790.0281	330.5724	-334.3777	1	470.1984	-45.32788	-1.662606E-007	0.0092073	9
	32	9	628.811	364.8253	-400.0177	1	541.3979	-47.63447	-1.61579E-007	0.0092076	9
	33	9	502.2321	409.4169	-474.4865	1	626.7054	-49.2103	-1.793062E-007	0.0092112	9
	34	10	400.1524	468.4613	-559.112	1	729.4259	-50.04148	-2.01409E-007	0.0092091	9
	35	10	315.5048	549.2021	-656.9838	1	856.3006	-50.10624	-1.810858E-007	0.0092103	9
	36	10	252.0161	646.741	-755.0775	1	994.191	-49.41919	-1.886662E-007	0.0092074	9
	37	10	200.3205	770.4171	-856.4277	1	1151.96	-48.02639	-2.0605E-007	0.0092086	9
	38	11	158.0056	924.8375	-956.172	1	1330.259	-45.95436	-1.938278E-007	0.009211	9
	39	11	125.558	1098.669	-1041.13	1	1513.613	-43.45967	-2.383824E-007	0.0092051	9
	40	11	99.734	1292.959	-1109.471	1	1703.722	-40.63244	-2.004908E-007	0.0092122	9
	41	11	79.44915	1495.976	-1155.941	1	1890.54	-37.69328	-4.926793E-007	0.0091846	9
	42	11	63.34459	1703.989	-1179.997	1	2072.672	-34.70226	-4.69998E-007	0.0091864	9
	43	12	49.86702	1921.871	-1183.099	1	2256.836	-31.61634	-4.610403E-007	0.0091867	9
	44	12	38.42213	2152.02	-1164.619	1	2446.942	-28.42113	-4.820613E-007	0.0091845	9
	45	12	31.25	2327.572	-1136.288	1	2590.124	-26.02099	-4.586215E-007	0.0091897	9
	46	12	24.93351	2501.945	-1104.914	1	2735.062	-23.82731	-4.860093E-007	0.0091888	9
	47	13	20.03205	2663.849	-1064.43	1	2868.641	-21.78083	-5.118052E-007	0.0091852	9
	48	13	15.625	2834.281	-1016.167	1	3010.938	-19.72414	-4.981179E-007	0.0091881	9
	49	14	12.46675	2975.779	-970.355	1	3129.992	-18.06035	-6.007374E-007	0.0091877	8
	50	14	9.9734	3107.576	-926.1157	1	3242.64	-16.59504	-6.039003E-007	0.0091874	8
	51	15	7.971939	3230.236	-883.5271	1	3348.887	-15.29727	-5.992575E-007	0.0091862	8
	52	15	6.351626	3345.785	-843.6726	1	3450.516	-14.15265	-6.030666E-007	0.0091874	8
	53	16	5.013369	3457.798	-806.7796	1	3550.67	-13.1334	-6.138467E-007	0.0091867	8
	54	17	3.985969	3558.816	-776.1467	1	3642.468	-12.30306	-6.138973E-007	0.0091865	8
	55	18	3.175813	3653.149	-751.3305	1	3729.611	-11.62177	-6.330622E-007	0.009185	8
	56	19	2.516103	3745.252	-729.8597	1	3815.706	-11.02736	-6.504764E-007	0.0091881	8
	57	21	1.99553	3832.388	-717.3378	1	3898.945	-10.60182	-6.730775E-007	0.0091896	8
	58	23	1.587906	3915.943	-710.8922	1	3979.947	-10.2893	-6.795894E-007	0.0091873	8
	59	26	1.258052	3999.342	-710.1348	1	4061.899	-10.06866	-7.042918E-007	0.00919	8
	60	29	0.997765	4083.94	-715.4689	1	4146.139	-9.93685	-7.552657E-007	0.0091907	8
