EXPLAIN
TAG	EISPOT
TITLE	LABEL	Potentiostatic EIS	Test &Identifier
DATE	LABEL	21.9.2016	Date
TIME	LABEL	9:35:36	Time
NOTES	NOTES	1	&Notes...
	
PSTAT	PSTAT	IFC1000-05175	Potentiostat
VDC	POTEN	0.00000E+000	T	DC &Voltage (V)
FREQINIT	QUANT	1.00000E+006	Initial Fre&q. (Hz)
FREQFINAL	QUANT	1.00000E-001	Final Fre&q. (Hz)
PTSPERDEC	QUANT	1.00000E+001	Points/&decade
VAC	QUANT	1.00000E+002	AC &Voltage (mV rms)
AREA	QUANT	1.00000E+000	&Area (cm^2)
CONDIT	TWOPARAM	F	1.50000E+001	0.00000E+000	Conditionin&g	Time(s)	E(V)
DELAY	TWOPARAM	F	6.00000E+001	0.00000E+000	Init. De&lay	Time(s)	Stab.(mV/s)
SPEED	SELECTOR	1	&Optimize for:
ZGUESS	QUANT	1.00000E+002	E&stimated Z (ohms)
OCVCURVE	TABLE	40
	Pt	T	Vf	Vm	Ach	Over
	#	s	V vs. Ref.	V	V	bits
	0	0.25	-1.73255E-002	-1.73255E-002	0.00000E+000	...........
	1	0.5	-1.73254E-002	-1.73167E-002	0.00000E+000	...........
	2	0.75	-1.73242E-002	-1.73017E-002	0.00000E+000	...........
	3	1	-1.73205E-002	-1.72850E-002	0.00000E+000	...........
	4	1.25	-1.73126E-002	-1.72623E-002	0.00000E+000	...........
	5	1.5	-1.72998E-002	-1.72270E-002	0.00000E+000	...........
	6	1.75	-1.72819E-002	-1.72089E-002	0.00000E+000	...........
	7	2	-1.72596E-002	-1.71815E-002	0.00000E+000	...........
	8	2.25	-1.72345E-002	-1.71438E-002	0.00000E+000	...........
	9	2.5	-1.72077E-002	-1.71147E-002	0.00000E+000	...........
	10	2.75	-1.71793E-002	-1.70990E-002	0.00000E+000	...........
	11	3	-1.71508E-002	-1.70898E-002	0.00000E+000	...........
	12	3.25	-1.71255E-002	-1.70759E-002	0.00000E+000	...........
	13	3.5	-1.71054E-002	-1.70611E-002	0.00000E+000	...........
	14	3.75	-1.70896E-002	-1.70524E-002	0.00000E+000	...........
	15	4	-1.70760E-002	-1.70339E-002	0.00000E+000	...........
	16	4.25	-1.70632E-002	-1.70196E-002	0.00000E+000	...........
	17	4.5	-1.70498E-002	-1.70002E-002	0.00000E+000	...........
	18	4.75	-1.70350E-002	-1.69789E-002	0.00000E+000	...........
	19	5	-1.70186E-002	-1.69591E-002	0.00000E+000	...........
	20	5.25	-1.70002E-002	-1.69322E-002	0.00000E+000	...........
	21	5.5	-1.69800E-002	-1.69062E-002	0.00000E+000	...........
	22	5.75	-1.69578E-002	-1.68822E-002	0.00000E+000	...........
	23	6	-1.69341E-002	-1.68641E-002	0.00000E+000	...........
	24	6.25	-1.69101E-002	-1.68456E-002	0.00000E+000	...........
	25	6.5	-1.68874E-002	-1.68281E-002	0.00000E+000	...........
	26	6.75	-1.68665E-002	-1.68063E-002	0.00000E+000	...........
	27	7	-1.68468E-002	-1.67813E-002	0.00000E+000	...........
	28	7.25	-1.68269E-002	-1.67544E-002	0.00000E+000	...........
	29	7.5	-1.68055E-002	-1.67352E-002	0.00000E+000	...........
	30	7.75	-1.67828E-002	-1.67206E-002	0.00000E+000	...........
	31	8	-1.67606E-002	-1.67113E-002	0.00000E+000	...........
	32	8.25	-1.67411E-002	-1.67029E-002	0.00000E+000	...........
	33	8.5	-1.67255E-002	-1.67010E-002	0.00000E+000	...........
	34	8.75	-1.67141E-002	-1.66952E-002	0.00000E+000	...........
	35	9	-1.67060E-002	-1.66845E-002	0.00000E+000	...........
	36	9.25	-1.66994E-002	-1.66727E-002	0.00000E+000	...........
	37	9.5	-1.66923E-002	-1.66572E-002	0.00000E+000	...........
	38	9.75	-1.66828E-002	-1.66243E-002	0.00000E+000	...........
	39	10	-1.66689E-002	-1.65788E-002	0.00000E+000	...........
EOC	QUANT	-0.0166689	Open Circuit (V)
PSTATMODEL	IQUANT	48	Pstat Model
PSTATSECTION	LABEL	IFC1000-05175	Pstat Section
PSTATSERIALNO	LABEL	05175	Pstat Serial Number
CTRLMODE	IQUANT	1	Control Mode
IESTAB	IQUANT	0	I/E Stability
CASPEED	IQUANT	1	Control Amp Speed
CONVENTION	IQUANT	1	Current Convention
ICHRANGE	IQUANT	2	Ich Range
ICHRANGEMODE	TOGGLE	F	Ich Auto Range
ICHOFFSETENABLE	TOGGLE	T	Ich Offset Enable
ICHOFFSET	QUANT	0	Ich Offset (V)
ICHFILTER	IQUANT	4	Ich Filter
VCHRANGE	IQUANT	2	Vch Range
VCHRANGEMODE	TOGGLE	F	Vch Auto Range
VCHOFFSETENABLE	TOGGLE	T	Vch Offset Enable
VCHOFFSET	QUANT	0	Vch Offset (V)
VCHFILTER	IQUANT	4	Vch Filter
IERANGELOWERLIMIT	IQUANT	4	I/E Range Lower Limit
IERANGEMODE	TOGGLE	F	I/E AutoRange
IERANGE	IQUANT	9	I/E Range
ACHSELECT	IQUANT	4	Ach Select
CABLEID	IQUANT	14	Cable ID
DCCALDATE	LABEL	27.2.2015	DC Calibration Date
ACCALDATE	LABEL	27.2.2015	AC Calibration Date
FRAMEWORKVERSION	QUANT	6.2	Framework Version
INSTRUMENTVERSION	LABEL	3.20	Instrument Version
ZCURVE	TABLE
	Pt	Time	Freq	Zreal	Zimag	Zsig	Zmod	Zphz	Idc	Vdc	IERange
	#	s	Hz	ohm	ohm	V	ohm	°	A	V	#
	0	1	1000020	15.14643	4.114479	1	15.69533	15.19748	1.677827E-005	-0.0161074	11
	1	3	794355.5	15.32284	2.763436	1	15.57004	10.22326	0.0001021	-0.0159364	12
	2	4	630996.1	15.28847	2.05617	1	15.42612	7.659837	0.0000958	-0.0161437	12
	3	6	501269.5	15.27991	1.473784	1	15.35082	5.509273	8.655373E-005	-0.0163066	12
	4	7	398144.5	15.28024	0.984985	1	15.31196	3.688259	9.087184E-005	-0.0164076	12
	5	9	316230.5	15.2912	0.5549536	1	15.30127	2.078486	8.766714E-005	-0.0164834	12
	6	10	251191.4	15.32532	0.1629206	1	15.32619	0.6090777	8.095767E-005	-0.0165168	12
	7	12	199628.9	15.35396	-0.205479	1	15.35533	-0.7667324	8.955393E-005	-0.016554	12
	8	13	158496.1	15.4521	-0.5367521	1	15.46142	-1.989456	1.480217E-005	-0.0165867	11
	9	16	125918	15.54073	-0.9319299	1	15.56865	-3.431743	1.509019E-005	-0.0165948	11
	10	17	100019.5	15.6703	-1.33927	1	15.72743	-4.884943	-9.251544E-007	-0.0167504	11
	11	19	79511.72	15.82091	-1.775386	1	15.92022	-6.402811	-1.938619E-006	-0.016754	11
	12	20	63105.47	16.00115	-2.259311	1	16.15986	-8.036855	-2.322498E-006	-0.0167585	11
	13	21	50214.84	16.2119	-2.797208	1	16.45145	-9.78945	-2.10626E-006	-0.0167611	11
	14	23	39902.34	16.47867	-3.408615	1	16.82751	-11.68682	-1.896294E-006	-0.0167597	11
	15	25	31699.22	16.80137	-4.106942	1	17.29604	-13.73607	-2.284991E-006	-0.0167633	11
	16	26	25136.72	17.18765	-4.918351	1	17.87752	-15.9688	-1.523541E-006	-0.0167633	11
	17	28	19980.47	17.64723	-5.845146	1	18.59007	-18.32599	-1.641254E-006	-0.0167619	11
	18	29	15878.91	18.19643	-6.915688	1	19.4663	-20.80967	-1.554293E-006	-0.0167632	11
	19	30	12597.66	18.85935	-8.159859	1	20.54893	-23.39664	-1.613574E-006	-0.0167631	11
	20	32	10019.53	19.64004	-9.58255	1	21.85307	-26.00817	-1.585249E-006	-0.0167646	11
	21	33	7928.241	20.58731	-11.26054	1	23.46565	-28.67712	-6.466296E-007	-0.0167486	11
	22	35	6307.871	21.68599	-13.14787	1	25.36038	-31.22777	-6.049517E-007	-0.0167494	11
	23	36	5034.722	22.96235	-15.28187	1	27.5827	-33.6445	1.228144E-006	-0.0167457	11
	24	38	3993.056	24.49941	-17.78894	1	30.27652	-35.98328	1.188437E-006	-0.0167427	11
	25	39	3144.055	26.36116	-20.79487	1	33.57585	-38.26796	2.605848E-007	-0.0167444	10
	26	40	2519.531	28.38357	-23.98195	1	37.15859	-40.19526	4.203976E-007	-0.0167456	10
	27	42	2000.762	30.80746	-27.76177	1	41.47066	-42.02322	4.436913E-007	-0.0167474	10
	28	43	1580.669	33.67401	-32.21478	1	46.60183	-43.73129	5.314533E-007	-0.0167449	10
	29	44	1253.634	36.93028	-37.27786	1	52.47366	-45.26836	5.893228E-007	-0.0167439	10
	30	46	1000.702	40.54726	-42.92331	1	59.04652	-46.63052	6.608786E-007	-0.0167418	10
	31	47	790.0281	44.93596	-49.8383	1	67.10512	-47.96107	6.621719E-007	-0.0167424	10
	32	48	628.811	49.80355	-57.57078	1	76.1235	-49.13745	6.356192E-007	-0.0167439	10
	33	50	502.2321	55.31894	-66.39393	1	86.41955	-50.19918	7.79595E-007	-0.0167398	10
	34	51	400.1524	61.6502	-76.50771	1	98.2557	-51.138	7.640556E-007	-0.0167405	10
	35	52	315.5048	69.51604	-89.16404	1	113.0606	-52.05852	8.812477E-007	-0.0167375	10
	36	54	252.0161	78.13824	-102.9892	1	129.2763	-52.81228	7.565257E-007	-0.0167393	10
	37	55	200.3205	88.4295	-119.3411	1	148.5331	-53.46225	7.27794E-007	-0.0167401	10
	38	56	158.0056	101.0515	-139.1801	1	171.9956	-54.01853	7.877502E-007	-0.0167354	10
	39	57	125.558	115.0667	-161.0364	1	197.9219	-54.45275	6.881644E-007	-0.016739	10
	40	59	99.734	131.6535	-186.5451	1	228.3237	-54.78761	7.046074E-007	-0.0167369	10
	41	60	79.44915	151.5928	-216.4249	1	264.2349	-54.99103	-1.084748E-006	-0.0167627	10
	42	62	63.34459	174.1138	-250.0405	1	304.6898	-55.14887	-9.150489E-007	-0.0167612	10
	43	63	49.86702	201.3271	-289.8168	1	352.8829	-55.21344	-1.262771E-006	-0.0167669	9
	44	64	38.42213	237.3203	-340.7972	1	415.2874	-55.14788	-1.08625E-006	-0.0167644	9
	45	66	31.25	271.5465	-387.4344	1	473.1204	-54.974	-9.440076E-007	-0.0167639	9
	46	67	24.93351	310.1838	-444.3579	1	541.9114	-55.08305	-9.791646E-007	-0.0167666	9
	47	68	20.03205	356.8831	-507.7758	1	620.6462	-54.89907	-9.261602E-007	-0.0167616	9
	48	70	15.625	417.3687	-589.7434	1	722.4915	-54.71249	-7.629178E-007	-0.0167646	9
	49	71	12.46675	482.0226	-674.7135	1	829.2069	-54.45758	-6.584183E-007	-0.0167631	9
	50	73	9.9734	556.8923	-769.8967	1	950.195	-54.12051	-5.962577E-007	-0.0167624	9
	51	75	7.971939	644.4494	-877.4712	1	1088.701	-53.70498	-5.320932E-007	-0.0167637	9
	52	76	6.351626	748.2896	-999.805	1	1248.819	-53.18753	-5.492424E-007	-0.0167637	9
	53	78	5.013369	875.3013	-1142.064	1	1438.91	-52.53271	-4.793075E-007	-0.0167635	9
	54	81	3.985969	1020.625	-1295.632	1	1649.344	-51.77098	-4.356334E-007	-0.016763	9
	55	83	3.175813	1188.034	-1460.98	1	1883.053	-50.88282	-4.568087E-007	-0.0167665	9
	56	86	2.516103	1392.278	-1644.225	1	2154.51	-49.74312	-4.524769E-007	-0.0167615	9
	57	89	1.99553	1618.732	-1831.667	1	2444.442	-48.53143	-4.173611E-007	-0.0167593	9
	58	93	1.587906	1882.554	-2036.233	1	2773.131	-47.24576	-3.905948E-007	-0.0167633	9
	59	97	1.258052	2191.2	-2246.114	1	3137.895	-45.70902	-3.561439E-007	-0.0167617	9
	60	102	0.997765	2536.578	-2446.705	1	3524.286	-43.96679	-3.184451E-007	-0.0167612	8
	61	108	0.7927448	2919.021	-2638.392	1	3934.691	-42.10922	-3.064074E-007	-0.0167613	8
	62	116	0.6290258	3344.263	-2823.707	1	4376.919	-40.17586	-2.87987E-007	-0.0167627	8
	63	125	0.4988825	3803.035	-2985.394	1	4834.837	-38.13202	-2.692434E-007	-0.0167624	8
	64	136	0.3985969	4270.981	-3103.682	1	5279.595	-36.00555	-3.2136E-007	-0.0167643	8
	65	150	0.316723	4774.691	-3188.269	1	5741.318	-33.73276	-3.489596E-007	-0.0167644	8
	66	167	0.2514753	5306.437	-3229.464	1	6211.901	-31.32442	-3.577582E-007	-0.0167648	8
	67	188	0.1999787	5814.345	-3192.697	1	6633.244	-28.77149	-3.006559E-007	-0.0167646	8
	68	214	0.1587906	6283.62	-3086.668	1	7000.814	-26.16141	-3.288571E-007	-0.0167658	8
	69	246	0.1260081	6742.203	-3043.623	1	7397.36	-24.29577	-1.061879E-007	-0.0167653	8
	70	285	0.1001603	7118.448	-2855.161	1	7669.697	-21.85539	-2.304085E-007	-0.0167636	8
