EXPLAIN
TAG	EISPOT
TITLE	LABEL	Potentiostatic EIS	Test &Identifier
DATE	LABEL	21.9.2016	Date
TIME	LABEL	14:59:25	Time
NOTES	NOTES	1	&Notes...
	
PSTAT	PSTAT	IFC1000-05175	Potentiostat
VDC	POTEN	0.00000E+000	T	DC &Voltage (V)
FREQINIT	QUANT	1.00000E+006	Initial Fre&q. (Hz)
FREQFINAL	QUANT	1.00000E-001	Final Fre&q. (Hz)
PTSPERDEC	QUANT	1.00000E+001	Points/&decade
VAC	QUANT	1.00000E+002	AC &Voltage (mV rms)
AREA	QUANT	1.00000E+000	&Area (cm^2)
CONDIT	TWOPARAM	F	1.50000E+001	0.00000E+000	Conditionin&g	Time(s)	E(V)
DELAY	TWOPARAM	F	6.00000E+001	0.00000E+000	Init. De&lay	Time(s)	Stab.(mV/s)
SPEED	SELECTOR	1	&Optimize for:
ZGUESS	QUANT	1.00000E+002	E&stimated Z (ohms)
OCVCURVE	TABLE	40
	Pt	T	Vf	Vm	Ach	Over
	#	s	V vs. Ref.	V	V	bits
	0	0.25	2.40369E-002	2.40369E-002	0.00000E+000	...........
	1	0.5	2.40374E-002	2.40588E-002	0.00000E+000	...........
	2	0.75	2.40403E-002	2.40982E-002	0.00000E+000	...........
	3	1	2.40497E-002	2.41329E-002	0.00000E+000	...........
	4	1.25	2.40686E-002	2.41715E-002	0.00000E+000	...........
	5	1.5	2.40972E-002	2.42372E-002	0.00000E+000	...........
	6	1.75	2.41345E-002	2.42970E-002	0.00000E+000	...........
	7	2	2.41800E-002	2.43439E-002	0.00000E+000	...........
	8	2.25	2.42321E-002	2.44100E-002	0.00000E+000	...........
	9	2.5	2.42867E-002	2.44125E-002	0.00000E+000	...........
	10	2.75	2.43383E-002	2.44547E-002	0.00000E+000	...........
	11	3	2.43820E-002	2.44584E-002	0.00000E+000	...........
	12	3.25	2.44160E-002	2.44867E-002	0.00000E+000	...........
	13	3.5	2.44422E-002	2.45122E-002	0.00000E+000	...........
	14	3.75	2.44643E-002	2.45156E-002	0.00000E+000	...........
	15	4	2.44848E-002	2.45564E-002	0.00000E+000	...........
	16	4.25	2.45051E-002	2.45832E-002	0.00000E+000	...........
	17	4.5	2.45272E-002	2.46006E-002	0.00000E+000	...........
	18	4.75	2.45526E-002	2.46917E-002	0.00000E+000	...........
	19	5	2.45840E-002	2.47162E-002	0.00000E+000	...........
	20	5.25	2.46229E-002	2.47429E-002	0.00000E+000	...........
	21	5.5	2.46672E-002	2.48627E-002	0.00000E+000	...........
	22	5.75	2.47162E-002	2.48990E-002	0.00000E+000	...........
	23	6	2.47718E-002	2.49473E-002	0.00000E+000	...........
	24	6.25	2.48315E-002	2.49925E-002	0.00000E+000	...........
	25	6.5	2.48889E-002	2.50380E-002	0.00000E+000	...........
	26	6.75	2.49412E-002	2.50856E-002	0.00000E+000	...........
	27	7	2.49896E-002	2.51383E-002	0.00000E+000	...........
	28	7.25	2.50367E-002	2.51877E-002	0.00000E+000	...........
	29	7.5	2.50847E-002	2.52415E-002	0.00000E+000	...........
	30	7.75	2.51342E-002	2.52903E-002	0.00000E+000	...........
	31	8	2.51849E-002	2.53451E-002	0.00000E+000	...........
	32	8.25	2.52369E-002	2.54298E-002	0.00000E+000	...........
	33	8.5	2.52916E-002	2.54591E-002	0.00000E+000	...........
	34	8.75	2.53481E-002	2.54739E-002	0.00000E+000	...........
	35	9	2.54003E-002	2.55015E-002	0.00000E+000	...........
	36	9.25	2.54429E-002	2.55505E-002	0.00000E+000	...........
	37	9.5	2.54767E-002	2.55415E-002	0.00000E+000	...........
	38	9.75	2.55049E-002	2.55590E-002	0.00000E+000	...........
	39	10	2.55280E-002	2.55865E-002	0.00000E+000	...........
EOC	QUANT	0.025528	Open Circuit (V)
PSTATMODEL	IQUANT	48	Pstat Model
PSTATSECTION	LABEL	IFC1000-05175	Pstat Section
PSTATSERIALNO	LABEL	05175	Pstat Serial Number
CTRLMODE	IQUANT	1	Control Mode
IESTAB	IQUANT	0	I/E Stability
CASPEED	IQUANT	1	Control Amp Speed
CONVENTION	IQUANT	1	Current Convention
ICHRANGE	IQUANT	2	Ich Range
ICHRANGEMODE	TOGGLE	F	Ich Auto Range
ICHOFFSETENABLE	TOGGLE	T	Ich Offset Enable
ICHOFFSET	QUANT	0	Ich Offset (V)
ICHFILTER	IQUANT	4	Ich Filter
VCHRANGE	IQUANT	2	Vch Range
VCHRANGEMODE	TOGGLE	F	Vch Auto Range
VCHOFFSETENABLE	TOGGLE	T	Vch Offset Enable
VCHOFFSET	QUANT	0	Vch Offset (V)
VCHFILTER	IQUANT	4	Vch Filter
IERANGELOWERLIMIT	IQUANT	4	I/E Range Lower Limit
IERANGEMODE	TOGGLE	F	I/E AutoRange
IERANGE	IQUANT	9	I/E Range
ACHSELECT	IQUANT	4	Ach Select
CABLEID	IQUANT	14	Cable ID
DCCALDATE	LABEL	27.2.2015	DC Calibration Date
ACCALDATE	LABEL	27.2.2015	AC Calibration Date
FRAMEWORKVERSION	QUANT	6.2	Framework Version
INSTRUMENTVERSION	LABEL	3.20	Instrument Version
ZCURVE	TABLE
	Pt	Time	Freq	Zreal	Zimag	Zsig	Zmod	Zphz	Idc	Vdc	IERange
	#	s	Hz	ohm	ohm	V	ohm	°	A	V	#
	0	1	1000020	321.3834	-8864.056	1	8869.88	-87.92354	1.519299E-006	0.0258786	9
	1	3	794355.5	474.4984	-11183.62	1	11193.68	-87.57051	1.637044E-006	0.025955	9
	2	4	630996.1	687.731	-14077.7	1	14094.48	-87.20318	1.617699E-006	0.0258182	9
	3	5	501269.5	1060.895	-17661.85	1	17693.69	-86.56255	1.621983E-006	0.0257428	9
	4	7	398144.5	1631.45	-22198.69	1	22258.55	-85.79671	1.573955E-006	0.0257007	9
	5	8	316230.5	2495.686	-27844.35	1	27955.97	-84.87827	1.57058E-006	0.0256717	9
	6	9	251191.4	4280.092	-34873.23	1	35134.91	-83.00292	9.39333E-007	0.025099	8
	7	11	199628.9	6308.44	-43441.77	1	43897.42	-81.73749	9.37419E-007	0.0251111	8
	8	12	158496.1	8935.168	-54232.58	1	54963.72	-80.6442	9.400378E-007	0.0250686	8
	9	13	125918	13879.43	-66861	1	68286.4	-78.27274	9.441686E-007	0.0250563	8
	10	15	100019.5	20883.94	-82106.41	1	84720.73	-75.72931	-9.419392E-008	0.0254306	8
	11	16	79511.72	30908.34	-99670.5	1	104352.9	-72.77106	-9.593263E-008	0.0254296	8
	12	17	63105.47	45540.67	-119415.5	1	127804.6	-69.12499	-9.524585E-008	0.0254278	8
	13	19	50214.84	65927.25	-140590.7	1	155280.8	-64.87669	-9.547752E-008	0.0254278	8
	14	20	39902.34	93411.36	-160773.5	1	185940.3	-59.84289	-1.008871E-007	0.0254256	8
	15	21	31699.22	128139.6	-176495.8	1	218106.7	-54.01957	-1.022737E-007	0.0254241	8
	16	23	25136.72	167432.4	-186758	1	250823	-48.12311	-1.022386E-007	0.0254233	8
	17	24	19980.47	210828.6	-187312.2	1	282018.7	-41.61973	-1.035266E-007	0.0254209	8
	18	26	15878.91	252928.4	-178239.9	1	309422.4	-35.17254	-1.031908E-007	0.0254231	8
	19	27	12597.66	286517	-162322.2	1	329303	-29.53311	-1.036192E-007	0.0254225	8
	20	28	10019.53	317445.6	-143700.4	1	348455.9	-24.35518	-1.052251E-007	0.0254219	8
	21	30	7928.241	338718.8	-119438.4	1	359160	-19.42358	-2.294617E-008	0.0256619	7
	22	31	6307.871	351999.4	-96960.5	1	365109.4	-15.40057	-2.289263E-008	0.025658	7
	23	32	5034.722	362806.8	-82519.03	1	372072.8	-12.81372	-7.776039E-009	0.0254341	7
	24	34	3993.056	369423.8	-66404.59	1	375344.5	-10.1902	-8.094438E-009	0.0254366	7
	25	35	3144.055	373860.1	-53146.54	1	377618.8	-8.090742	-8.044133E-009	0.0254325	7
	26	36	2519.531	376416.5	-43002.91	1	378864.9	-6.517381	-8.375737E-009	0.0254316	7
	27	38	2000.762	378145	-34541.93	1	379719.3	-5.219241	-8.10135E-009	0.025431	7
	28	39	1580.669	379310.1	-27585.67	1	380311.9	-4.159564	-8.115099E-009	0.0254342	7
	29	40	1253.634	380392.9	-22057.48	1	381031.8	-3.31864	-8.003152E-009	0.0254345	7
	30	41	1000.702	380541.3	-17907.86	1	380962.4	-2.694289	-8.81521E-009	0.0254378	7
	31	43	790.0281	381099.4	-11378.82	1	381269.3	-1.710222	-8.009524E-009	0.0254393	6
	32	44	628.811	380958	-9087.192	1	381066.3	-1.366447	-7.891665E-009	0.0254341	6
	33	45	502.2321	380825.2	-7545.165	1	380899.9	-1.135034	-8.210329E-009	0.0254278	6
	34	46	400.1524	380810.7	-6168.137	1	380860.6	-0.9279607	-8.291786E-009	0.0254508	6
	35	48	315.5048	380623.9	-5069.191	1	380657.7	-0.7630264	-7.57807E-009	0.0254249	6
	36	49	252.0161	380705.3	-4152.378	1	380727.9	-0.6249042	-7.799311E-009	0.0254467	6
	37	50	200.3205	380611.2	-3624.22	1	380628.5	-0.5455599	-7.707188E-009	0.0254507	6
	38	51	158.0056	380737.8	-3102.126	1	380750.5	-0.4668167	-7.376058E-009	0.0254248	6
	39	53	125.558	380656.9	-2748.644	1	380666.8	-0.4137136	-7.559438E-009	0.0254499	6
	40	54	99.734	380339.1	-2521.562	1	380347.5	-0.3798525	-7.660682E-009	0.0254391	6
	41	55	79.44915	380726.4	-2100.741	1	380732.2	-0.3161388	-7.82591E-009	0.0254001	6
	42	56	63.34459	380535.5	-2063.692	1	380541.1	-0.3107192	-7.79688E-009	0.0253961	6
	43	58	49.86702	378366	-3290.492	1	378380.3	-0.498265	-7.881385E-009	0.0254015	6
	44	59	38.42213	379706.3	-2001.891	1	379711.6	-0.3020726	-8.28978E-009	0.0254262	6
	45	60	31.25	379868.9	-2534.95	1	379877.3	-0.3823419	-8.032464E-009	0.0254002	6
	46	61	24.93351	379699	-2283.744	1	379705.9	-0.3446079	-8.11228E-009	0.0254033	6
	47	63	20.03205	379595.6	-2194.187	1	379602	-0.3311847	-8.162002E-009	0.025426	6
	48	64	15.625	379778.4	-2741.459	1	379788.3	-0.4135867	-7.639716E-009	0.0254038	6
	49	66	12.46675	379850.7	-2822.196	1	379861.2	-0.4256856	-7.50012E-009	0.0254006	6
	50	67	9.9734	379800.4	-3103.377	1	379813.1	-0.4681577	-7.397044E-009	0.0254012	6
	51	69	7.971939	379906.9	-3431.26	1	379922.4	-0.5174725	-7.172131E-009	0.0254002	6
	52	71	6.351626	379913.6	-3827.161	1	379932.9	-0.5771648	-7.256758E-009	0.0254256	6
	53	73	5.013369	380241.6	-4263.164	1	380265.5	-0.6423575	-6.523772E-009	0.0254028	6
	54	75	3.985969	380545	-4768.347	1	380574.9	-0.7178963	-6.288368E-009	0.0254015	6
	55	77	3.175813	380549.3	-5335.436	1	380586.7	-0.8032546	-6.767355E-009	0.0254252	6
	56	80	2.516103	380777.7	-5966.421	1	380824.4	-0.8976965	-6.729642E-009	0.025414	6
	57	83	1.99553	380925.8	-6743.532	1	380985.5	-1.014202	-7.107083E-009	0.0254152	6
	58	87	1.587906	380859.3	-7639.396	1	380935.9	-1.149103	-7.408063E-009	0.0254122	6
	59	91	1.258052	380706.3	-8690.732	1	380805.5	-1.307716	-8.275864E-009	0.025414	6
	60	96	0.997765	380713	-9808.2	1	380839.3	-1.475769	-8.972333E-009	0.0254144	6
	61	101	0.7927448	379982.1	-11138.91	1	380145.3	-1.679105	-8.717861E-009	0.0254143	6
	62	107	0.6290258	379389.7	-12745.32	1	379603.8	-1.924086	-8.49102E-009	0.0254145	6
	63	115	0.4988825	379028.5	-14509.54	1	379306.2	-2.192262	-8.714991E-009	0.0254146	6
	64	124	0.3985969	377403.5	-16478.91	1	377763.1	-2.50017	-1.106377E-008	0.025413	6
	65	135	0.316723	374552.6	-18736.19	1	375020.9	-2.863712	-1.534398E-008	0.0254105	6
	66	149	0.2514753	372437.4	-21337.59	1	373048.1	-3.278991	-1.874903E-008	0.0254135	6
	67	166	0.1999787	370603.3	-24741.25	1	371428.3	-3.819363	-2.138663E-008	0.0254131	6
	68	187	0.1587906	370425.4	-28557.43	1	371524.6	-4.408419	-1.987283E-008	0.025413	6
	69	213	0.1260081	370079.7	-32934.2	1	371542.2	-5.085481	-1.344651E-008	0.0254129	6
	70	243	0.1001603	369816	-37162.13	1	371678.5	-5.738284	-7.004683E-009	0.0254141	6
