EXPLAIN
TAG	EISPOT
TITLE	LABEL	Potentiostatic EIS	Test &Identifier
DATE	LABEL	21.9.2016	Date
TIME	LABEL	13:57:13	Time
NOTES	NOTES	1	&Notes...
	
PSTAT	PSTAT	IFC1000-05175	Potentiostat
VDC	POTEN	0.00000E+000	T	DC &Voltage (V)
FREQINIT	QUANT	1.00000E+006	Initial Fre&q. (Hz)
FREQFINAL	QUANT	1.00000E-001	Final Fre&q. (Hz)
PTSPERDEC	QUANT	1.00000E+001	Points/&decade
VAC	QUANT	1.00000E+002	AC &Voltage (mV rms)
AREA	QUANT	1.00000E+000	&Area (cm^2)
CONDIT	TWOPARAM	F	1.50000E+001	0.00000E+000	Conditionin&g	Time(s)	E(V)
DELAY	TWOPARAM	F	6.00000E+001	0.00000E+000	Init. De&lay	Time(s)	Stab.(mV/s)
SPEED	SELECTOR	1	&Optimize for:
ZGUESS	QUANT	1.00000E+002	E&stimated Z (ohms)
OCVCURVE	TABLE	40
	Pt	T	Vf	Vm	Ach	Over
	#	s	V vs. Ref.	V	V	bits
	0	0.25	-1.18898E-002	-1.18898E-002	0.00000E+000	...........
	1	0.5	-1.18923E-002	-1.20203E-002	0.00000E+000	...........
	2	0.75	-1.19073E-002	-1.21270E-002	0.00000E+000	...........
	3	1	-1.19490E-002	-1.22535E-002	0.00000E+000	...........
	4	1.25	-1.20236E-002	-1.23704E-002	0.00000E+000	...........
	5	1.5	-1.21240E-002	-1.24771E-002	0.00000E+000	...........
	6	1.75	-1.22374E-002	-1.25932E-002	0.00000E+000	...........
	7	2	-1.23542E-002	-1.27113E-002	0.00000E+000	...........
	8	2.25	-1.24704E-002	-1.28270E-002	0.00000E+000	...........
	9	2.5	-1.25859E-002	-1.29342E-002	0.00000E+000	...........
	10	2.75	-1.27007E-002	-1.30443E-002	0.00000E+000	...........
	11	3	-1.28137E-002	-1.31382E-002	0.00000E+000	...........
	12	3.25	-1.29236E-002	-1.32386E-002	0.00000E+000	...........
	13	3.5	-1.30295E-002	-1.33473E-002	0.00000E+000	...........
	14	3.75	-1.31322E-002	-1.34297E-002	0.00000E+000	...........
	15	4	-1.32323E-002	-1.35185E-002	0.00000E+000	...........
	16	4.25	-1.33297E-002	-1.36338E-002	0.00000E+000	...........
	17	4.5	-1.34259E-002	-1.37563E-002	0.00000E+000	...........
	18	4.75	-1.35251E-002	-1.38411E-002	0.00000E+000	...........
	19	5	-1.36282E-002	-1.39292E-002	0.00000E+000	...........
	20	5.25	-1.37310E-002	-1.40129E-002	0.00000E+000	...........
	21	5.5	-1.38283E-002	-1.40893E-002	0.00000E+000	...........
	22	5.75	-1.39188E-002	-1.41722E-002	0.00000E+000	...........
	23	6	-1.40036E-002	-1.42478E-002	0.00000E+000	...........
	24	6.25	-1.40846E-002	-1.43178E-002	0.00000E+000	...........
	25	6.5	-1.41633E-002	-1.44062E-002	0.00000E+000	...........
	26	6.75	-1.42409E-002	-1.44923E-002	0.00000E+000	...........
	27	7	-1.43197E-002	-1.45737E-002	0.00000E+000	...........
	28	7.25	-1.44008E-002	-1.46570E-002	0.00000E+000	...........
	29	7.5	-1.44832E-002	-1.47120E-002	0.00000E+000	...........
	30	7.75	-1.45634E-002	-1.47729E-002	0.00000E+000	...........
	31	8	-1.46381E-002	-1.48452E-002	0.00000E+000	...........
	32	8.25	-1.47071E-002	-1.49074E-002	0.00000E+000	...........
	33	8.5	-1.47730E-002	-1.49761E-002	0.00000E+000	...........
	34	8.75	-1.48383E-002	-1.50362E-002	0.00000E+000	...........
	35	9	-1.49032E-002	-1.50901E-002	0.00000E+000	...........
	36	9.25	-1.49669E-002	-1.51566E-002	0.00000E+000	...........
	37	9.5	-1.50289E-002	-1.52183E-002	0.00000E+000	...........
	38	9.75	-1.50899E-002	-1.52745E-002	0.00000E+000	...........
	39	10	-1.51507E-002	-1.53337E-002	0.00000E+000	...........
EOC	QUANT	-0.0151507	Open Circuit (V)
PSTATMODEL	IQUANT	48	Pstat Model
PSTATSECTION	LABEL	IFC1000-05175	Pstat Section
PSTATSERIALNO	LABEL	05175	Pstat Serial Number
CTRLMODE	IQUANT	1	Control Mode
IESTAB	IQUANT	0	I/E Stability
CASPEED	IQUANT	1	Control Amp Speed
CONVENTION	IQUANT	1	Current Convention
ICHRANGE	IQUANT	2	Ich Range
ICHRANGEMODE	TOGGLE	F	Ich Auto Range
ICHOFFSETENABLE	TOGGLE	T	Ich Offset Enable
ICHOFFSET	QUANT	0	Ich Offset (V)
ICHFILTER	IQUANT	4	Ich Filter
VCHRANGE	IQUANT	2	Vch Range
VCHRANGEMODE	TOGGLE	F	Vch Auto Range
VCHOFFSETENABLE	TOGGLE	T	Vch Offset Enable
VCHOFFSET	QUANT	0	Vch Offset (V)
VCHFILTER	IQUANT	4	Vch Filter
IERANGELOWERLIMIT	IQUANT	4	I/E Range Lower Limit
IERANGEMODE	TOGGLE	F	I/E AutoRange
IERANGE	IQUANT	9	I/E Range
ACHSELECT	IQUANT	4	Ach Select
CABLEID	IQUANT	14	Cable ID
DCCALDATE	LABEL	27.2.2015	DC Calibration Date
ACCALDATE	LABEL	27.2.2015	AC Calibration Date
FRAMEWORKVERSION	QUANT	6.2	Framework Version
INSTRUMENTVERSION	LABEL	3.20	Instrument Version
ZCURVE	TABLE
	Pt	Time	Freq	Zreal	Zimag	Zsig	Zmod	Zphz	Idc	Vdc	IERange
	#	s	Hz	ohm	ohm	V	ohm	°	A	V	#
	0	1	1000020	223.0614	2.58375	1	223.0763	0.6636351	2.942488E-006	-0.0146814	10
	1	3	794355.5	223.0229	1.535647	1	223.0282	0.3945098	2.905669E-006	-0.0146357	10
	2	4	630996.1	223.1106	0.714821	1	223.1117	0.1835686	2.867377E-006	-0.0148019	10
	3	6	501269.5	223.3054	0.0258207	1	223.3054	0.0066251	2.793544E-006	-0.0148796	10
	4	7	398144.5	223.5427	-0.5512109	1	223.5434	-0.1412795	2.877904E-006	-0.0149352	10
	5	9	316230.5	223.8477	-1.030092	1	223.8501	-0.2636591	2.888599E-006	-0.0149739	10
	6	10	251191.4	224.1506	-1.430027	1	224.1552	-0.3655284	2.800045E-006	-0.0149936	10
	7	11	199628.9	224.418	-1.799863	1	224.4253	-0.4595099	2.812138E-006	-0.0150055	10
	8	13	158496.1	224.6727	-2.152944	1	224.6831	-0.5490243	2.766222E-006	-0.0150686	10
	9	14	125918	224.9867	-2.541785	1	225.001	-0.647271	2.758237E-006	-0.0150739	10
	10	16	100019.5	225.2567	-2.972591	1	225.2763	-0.7560577	4.95902E-007	-0.0153001	10
	11	17	79511.72	225.8131	-2.95203	1	225.8324	-0.7489789	4.407592E-007	-0.0153035	10
	12	18	63105.47	225.7414	-4.200016	1	225.7805	-1.06589	4.923267E-007	-0.0153073	10
	13	20	50214.84	226.1804	-4.970577	1	226.235	-1.258939	4.567649E-007	-0.0153094	10
	14	21	39902.34	226.7196	-5.860035	1	226.7953	-1.480597	3.776895E-007	-0.0153088	10
	15	23	31699.22	227.3863	-6.851973	1	227.4895	-1.726007	4.02531E-007	-0.0153115	10
	16	24	25136.72	228.1969	-7.974266	1	228.3362	-2.001368	3.907034E-007	-0.0153095	10
	17	26	19980.47	229.1215	-9.206514	1	229.3064	-2.301009	4.181891E-007	-0.0153095	10
	18	27	15878.91	230.1779	-10.58565	1	230.4212	-2.633118	3.818308E-007	-0.015312	10
	19	28	12597.66	231.4195	-12.11264	1	231.7363	-2.996162	2.940299E-007	-0.0153106	10
	20	30	10019.53	232.7883	-13.83952	1	233.1993	-3.402294	3.051671E-007	-0.0153116	10
	21	31	7928.241	234.387	-15.83014	1	234.921	-3.863803	1.373716E-007	-0.0152996	10
	22	32	6307.871	236.147	-18.04363	1	236.8354	-4.369391	3.112501E-008	-0.0152986	10
	23	34	5034.722	238.1346	-20.53881	1	239.0187	-4.929491	3.931327E-007	-0.0152762	10
	24	36	3993.056	240.4217	-23.46113	1	241.5637	-5.573461	5.105771E-007	-0.0152756	10
	25	38	3144.055	243.1223	-26.92359	1	244.6085	-6.31924	5.259436E-007	-0.0152755	10
	26	39	2519.531	245.9634	-30.60082	1	247.8597	-7.091846	5.030859E-007	-0.0152771	10
	27	41	2000.762	249.334	-34.96747	1	251.774	-7.983294	5.254913E-007	-0.0152774	10
	28	42	1580.669	253.2833	-40.09325	1	256.4369	-8.994949	4.497651E-007	-0.0152757	10
	29	44	1253.634	257.7486	-45.88857	1	261.8017	-10.09495	4.79527E-007	-0.0152764	10
	30	45	1000.702	262.7297	-52.33348	1	267.8912	-11.26538	4.123854E-007	-0.0152738	10
	31	47	790.0281	268.747	-60.06383	1	275.3773	-12.59832	3.994334E-007	-0.0152761	10
	32	48	628.811	275.4537	-68.58808	1	283.8645	-13.98233	3.977506E-007	-0.0152744	10
	33	49	502.2321	283.1112	-78.11696	1	293.6907	-15.42542	3.797065E-007	-0.0152679	10
	34	51	400.1524	291.9861	-88.9705	1	305.2403	-16.9464	4.004256E-007	-0.0152743	10
	35	52	315.5048	302.3971	-101.6974	1	319.0397	-18.588	-1.569489E-007	-0.0152714	9
	36	53	252.0161	314.244	-115.3588	1	334.7491	-20.15816	-1.725863E-007	-0.0152706	9
	37	55	200.3205	328.2053	-130.8884	1	353.3418	-21.74213	-2.085379E-007	-0.0152766	9
	38	56	158.0056	344.8923	-148.7586	1	375.6059	-23.33145	-1.716999E-007	-0.0152734	9
	39	57	125.558	363.5284	-167.9159	1	400.4355	-24.79249	-2.086665E-007	-0.0152763	9
	40	59	99.734	384.8772	-188.954	1	428.7587	-26.14855	-1.938707E-007	-0.0152731	9
	41	61	79.44915	409.3198	-211.923	1	460.9274	-27.3726	-2.236304E-006	-0.0152971	9
	42	62	63.34459	436.3906	-236.7052	1	496.4536	-28.47611	-1.976475E-006	-0.0152929	9
	43	63	49.86702	468.4949	-265.0238	1	538.2612	-29.49649	-1.786829E-006	-0.0152969	9
	44	65	38.42213	508.1602	-298.7346	1	589.4651	-30.4502	-1.628008E-006	-0.0152972	9
	45	66	31.25	543.2708	-327.3771	1	634.2862	-31.07333	-1.462167E-006	-0.0152959	9
	46	68	24.93351	585.9374	-361.5738	1	688.5189	-31.67815	-1.558087E-006	-0.0152993	9
	47	71	20.03205	631.4397	-396.6137	1	745.6665	-32.13335	-1.458585E-006	-0.0152974	9
	48	72	15.625	689.017	-440.0107	1	817.5291	-32.56257	-1.289657E-006	-0.0153	9
	49	74	12.46675	747.0517	-482.3983	1	889.2662	-32.8518	-1.186503E-006	-0.0152973	9
	50	75	9.9734	810.1517	-527.1189	1	966.54	-33.04972	-1.089642E-006	-0.0152978	9
	51	77	7.971939	879.5034	-574.8132	1	1050.684	-33.16725	-1.003928E-006	-0.0152968	9
	52	79	6.351626	956.514	-626.3755	1	1143.357	-33.21887	-9.600899E-007	-0.0153	9
	53	81	5.013369	1043.984	-683.3729	1	1247.759	-33.20802	-8.862623E-007	-0.0152986	9
	54	83	3.985969	1135.999	-742.0746	1	1356.897	-33.15398	-8.240717E-007	-0.0152962	9
	55	86	3.175813	1234.647	-803.6883	1	1473.183	-33.06195	-8.2752E-007	-0.0153003	9
	56	89	2.516103	1346.146	-870.4639	1	1603.064	-32.88809	-8.420461E-007	-0.0152975	9
	57	93	1.99553	1461.81	-940.3869	1	1738.164	-32.75331	-8.729763E-007	-0.0152961	9
	58	97	1.587906	1586.61	-1016.458	1	1884.282	-32.64555	-8.767319E-007	-0.0152984	9
	59	101	1.258052	1723.329	-1098.293	1	2043.554	-32.50972	-9.101117E-007	-0.0152957	9
	60	106	0.997765	1871.417	-1184.973	1	2215.031	-32.3418	-1.021772E-006	-0.0152956	9
	61	112	0.7927448	2028.928	-1275.752	1	2396.684	-32.16092	-1.082681E-006	-0.0152948	9
	62	118	0.6290258	2198.684	-1371.171	1	2591.2	-31.94902	-1.154871E-006	-0.0152973	9
	63	126	0.4988825	2381.459	-1471.3	1	2799.299	-31.70838	-1.229334E-006	-0.0152962	9
	64	135	0.3985969	2569.335	-1571.88	1	3012.024	-31.45765	-1.317215E-006	-0.0152982	9
	65	146	0.316723	2774.674	-1678.463	1	3242.846	-31.17069	-1.397764E-006	-0.0152977	8
	66	160	0.2514753	2995.081	-1787.909	1	3488.141	-30.83502	-1.494103E-006	-0.0152996	8
	67	177	0.1999787	3226.857	-1899.586	1	3744.467	-30.48447	-1.567788E-006	-0.015299	8
	68	198	0.1587906	3472.702	-2015.067	1	4014.991	-30.12485	-1.667248E-006	-0.0152987	8
	69	224	0.1260081	3733.04	-2133.228	1	4299.564	-29.7456	-1.823647E-006	-0.0152979	8
	70	254	0.1001603	4007.719	-2250.227	1	4596.23	-29.31305	-2.084866E-006	-0.0152967	8
