EXPLAIN
TAG	EISPOT
TITLE	LABEL	Potentiostatic EIS	Test &Identifier
DATE	LABEL	22.9.2016	Date
TIME	LABEL	14:48:56	Time
NOTES	NOTES	1	&Notes...
	
PSTAT	PSTAT	IFC1000-05175	Potentiostat
VDC	POTEN	0.00000E+000	T	DC &Voltage (V)
FREQINIT	QUANT	1.00000E+006	Initial Fre&q. (Hz)
FREQFINAL	QUANT	1.00000E-001	Final Fre&q. (Hz)
PTSPERDEC	QUANT	1.00000E+001	Points/&decade
VAC	QUANT	1.00000E+002	AC &Voltage (mV rms)
AREA	QUANT	1.00000E+000	&Area (cm^2)
CONDIT	TWOPARAM	F	1.50000E+001	0.00000E+000	Conditionin&g	Time(s)	E(V)
DELAY	TWOPARAM	F	6.00000E+001	0.00000E+000	Init. De&lay	Time(s)	Stab.(mV/s)
SPEED	SELECTOR	1	&Optimize for:
ZGUESS	QUANT	1.00000E+002	E&stimated Z (ohms)
OCVCURVE	TABLE	40
	Pt	T	Vf	Vm	Ach	Over
	#	s	V vs. Ref.	V	V	bits
	0	0.25	-5.31815E-003	-5.31815E-003	0.00000E+000	...........
	1	0.5	-5.32258E-003	-5.55010E-003	0.00000E+000	...........
	2	0.75	-5.34999E-003	-5.78039E-003	0.00000E+000	...........
	3	1	-5.42713E-003	-5.94618E-003	0.00000E+000	...........
	4	1.25	-5.56214E-003	-6.12110E-003	0.00000E+000	...........
	5	1.5	-5.73537E-003	-6.30377E-003	0.00000E+000	...........
	6	1.75	-5.92141E-003	-6.48901E-003	0.00000E+000	...........
	7	2	-6.10775E-003	-6.68821E-003	0.00000E+000	...........
	8	2.25	-6.29394E-003	-6.90077E-003	0.00000E+000	...........
	9	2.5	-6.48325E-003	-7.06457E-003	0.00000E+000	...........
	10	2.75	-6.67499E-003	-7.22617E-003	0.00000E+000	...........
	11	3	-6.86379E-003	-7.42288E-003	0.00000E+000	...........
	12	3.25	-7.04708E-003	-7.62426E-003	0.00000E+000	...........
	13	3.5	-7.22889E-003	-7.80067E-003	0.00000E+000	...........
	14	3.75	-7.41373E-003	-8.00243E-003	0.00000E+000	...........
	15	4	-7.60208E-003	-8.19167E-003	0.00000E+000	...........
	16	4.25	-7.79215E-003	-8.35529E-003	0.00000E+000	...........
	17	4.5	-7.98047E-003	-8.51215E-003	0.00000E+000	...........
	18	4.75	-8.16263E-003	-8.69005E-003	0.00000E+000	...........
	19	5	-8.33785E-003	-8.88918E-003	0.00000E+000	...........
	20	5.25	-8.51112E-003	-9.06900E-003	0.00000E+000	...........
	21	5.5	-8.68760E-003	-9.22796E-003	0.00000E+000	...........
	22	5.75	-8.86609E-003	-9.37628E-003	0.00000E+000	...........
	23	6	-9.04106E-003	-9.55840E-003	0.00000E+000	...........
	24	6.25	-9.21078E-003	-9.75333E-003	0.00000E+000	...........
	25	6.5	-9.37998E-003	-9.92283E-003	0.00000E+000	...........
	26	6.75	-9.55225E-003	-1.00415E-002	0.00000E+000	...........
	27	7	-9.72360E-003	-1.02177E-002	0.00000E+000	...........
	28	7.25	-9.88930E-003	-1.04238E-002	0.00000E+000	...........
	29	7.5	-1.00525E-002	-1.05542E-002	0.00000E+000	...........
	30	7.75	-1.02163E-002	-1.06357E-002	0.00000E+000	...........
	31	8	-1.03735E-002	-1.07712E-002	0.00000E+000	...........
	32	8.25	-1.05156E-002	-1.09192E-002	0.00000E+000	...........
	33	8.5	-1.06501E-002	-1.12689E-002	0.00000E+000	...........
	34	8.75	-1.08004E-002	-1.14263E-002	0.00000E+000	...........
	35	9	-1.09887E-002	-1.19032E-002	0.00000E+000	...........
	36	9.25	-1.12172E-002	-1.17721E-002	0.00000E+000	...........
	37	9.5	-1.14562E-002	-1.19009E-002	0.00000E+000	...........
	38	9.75	-1.16580E-002	-1.19953E-002	0.00000E+000	...........
	39	10	-1.18038E-002	-1.21969E-002	0.00000E+000	...........
EOC	QUANT	-0.0118038	Open Circuit (V)
PSTATMODEL	IQUANT	48	Pstat Model
PSTATSECTION	LABEL	IFC1000-05175	Pstat Section
PSTATSERIALNO	LABEL	05175	Pstat Serial Number
CTRLMODE	IQUANT	1	Control Mode
IESTAB	IQUANT	0	I/E Stability
CASPEED	IQUANT	1	Control Amp Speed
CONVENTION	IQUANT	1	Current Convention
ICHRANGE	IQUANT	2	Ich Range
ICHRANGEMODE	TOGGLE	F	Ich Auto Range
ICHOFFSETENABLE	TOGGLE	T	Ich Offset Enable
ICHOFFSET	QUANT	0	Ich Offset (V)
ICHFILTER	IQUANT	4	Ich Filter
VCHRANGE	IQUANT	2	Vch Range
VCHRANGEMODE	TOGGLE	F	Vch Auto Range
VCHOFFSETENABLE	TOGGLE	T	Vch Offset Enable
VCHOFFSET	QUANT	0	Vch Offset (V)
VCHFILTER	IQUANT	4	Vch Filter
IERANGELOWERLIMIT	IQUANT	4	I/E Range Lower Limit
IERANGEMODE	TOGGLE	F	I/E AutoRange
IERANGE	IQUANT	9	I/E Range
ACHSELECT	IQUANT	4	Ach Select
CABLEID	IQUANT	14	Cable ID
DCCALDATE	LABEL	27.2.2015	DC Calibration Date
ACCALDATE	LABEL	27.2.2015	AC Calibration Date
FRAMEWORKVERSION	QUANT	6.2	Framework Version
INSTRUMENTVERSION	LABEL	3.20	Instrument Version
ZCURVE	TABLE
	Pt	Time	Freq	Zreal	Zimag	Zsig	Zmod	Zphz	Idc	Vdc	IERange
	#	s	Hz	ohm	ohm	V	ohm	°	A	V	#
	0	2	1000020	1077.196	-9861.52	1	9920.17	-83.76617	1.818053E-006	-0.011262	9
	1	3	794355.5	1679.5	-12379.93	1	12493.34	-82.27425	1.988874E-006	-0.0112322	9
	2	4	630996.1	2607.979	-15367.45	1	15587.18	-80.36822	1.83063E-006	-0.0113704	9
	3	6	501269.5	4106.411	-18981.63	1	19420.73	-77.79297	1.795469E-006	-0.0114545	9
	4	7	398144.5	6369.211	-23297.54	1	24152.47	-74.70978	1.822909E-006	-0.0115066	9
	5	8	316230.5	9652.66	-28370.01	1	29967.17	-71.20955	1.904667E-006	-0.0115462	9
	6	10	251191.4	14941.86	-33457.62	1	36642.48	-65.93491	1.154569E-006	-0.0122463	8
	7	11	199628.9	21253.59	-38448.3	1	43931.62	-61.06691	1.170876E-006	-0.0122532	8
	8	12	158496.1	29716.77	-42836.5	1	52134.94	-55.24997	1.21941E-006	-0.0123261	8
	9	14	125918	39870.77	-46041.05	1	60905.31	-49.10799	1.294512E-006	-0.0123959	8
	10	15	100019.5	49818.68	-46380.82	1	68066.74	-42.95331	-7.349501E-008	-0.0117629	8
	11	16	79511.72	60113.91	-44864.5	1	75010.04	-36.73489	-7.500558E-008	-0.0117653	8
	12	18	63105.47	69282.43	-41185.21	1	80599.48	-30.72953	-7.729817E-008	-0.0117639	8
	13	19	50214.84	76478.71	-36436.98	1	84715.09	-25.47467	-6.849204E-008	-0.0117692	8
	14	20	39902.34	82103.41	-31260.21	1	87853.12	-20.84393	-6.360254E-008	-0.0117699	8
	15	22	31699.22	86143.33	-26476.03	1	90120.21	-17.08474	-6.418087E-008	-0.0117694	8
	16	23	25136.72	88528.89	-21766.11	1	91165.39	-13.81302	-5.707629E-008	-0.011773	8
	17	24	19980.47	90825.62	-17970.68	1	92586.38	-11.19194	-5.835263E-008	-0.0117745	8
	18	26	15878.91	92292.84	-14487.12	1	93422.94	-8.920873	-6.152133E-008	-0.0117717	8
	19	27	12597.66	93397.74	-11814.09	1	94141.97	-7.209185	-6.675527E-008	-0.0117664	8
	20	28	10019.53	93900.95	-9476.15	1	94377.89	-5.762577	-5.87756E-008	-0.0117722	8
	21	30	7928.241	94184.88	-6951.642	1	94441.07	-4.22126	4.158138E-008	-0.0114937	7
	22	31	6307.871	94404.22	-5583.046	1	94569.16	-3.384519	4.245815E-008	-0.011491	7
	23	32	5034.722	94593.9	-4633.082	1	94707.29	-2.804029	6.377414E-008	-0.0117675	7
	24	33	3993.056	94699.94	-3766.187	1	94774.8	-2.277435	6.538677E-008	-0.0117638	7
	25	35	3144.055	94770.62	-3073.62	1	94820.45	-1.857577	6.744825E-008	-0.0117697	7
	26	36	2519.531	94847.03	-2534.503	1	94880.89	-1.530694	6.857366E-008	-0.011767	7
	27	37	2000.762	94910.07	-2116.518	1	94933.66	-1.277498	6.984749E-008	-0.0117699	7
	28	39	1580.669	94965.8	-1826.291	1	94983.36	-1.101722	7.080356E-008	-0.0117661	7
	29	40	1253.634	95022.9	-1568.836	1	95035.8	-0.9458727	7.249501E-008	-0.0117666	7
	30	41	1000.702	95109.3	-1374.701	1	95119.2	-0.8280904	7.394447E-008	-0.0117618	7
	31	42	790.0281	95183	-1225.296	1	95190.9	-0.7375308	7.591352E-008	-0.0117626	7
	32	44	628.811	95254.5	-1138.683	1	95261.3	-0.684888	7.595472E-008	-0.0117689	7
	33	45	502.2321	95318.6	-1055.746	1	95324.4	-0.6345809	7.926085E-008	-0.0117755	7
	34	46	400.1524	95416.5	-994.327	1	95421.7	-0.5970526	7.670742E-008	-0.0117438	7
	35	47	315.5048	95482.6	-982.874	1	95487.7	-0.5897671	8.150219E-008	-0.0117744	7
	36	49	252.0161	95568.7	-975.296	1	95573.7	-0.5846936	8.06824E-008	-0.0117497	7
	37	50	200.3205	95682.5	-973.42	1	95687.5	-0.5828747	8.080338E-008	-0.0117482	7
	38	51	158.0056	95787	-997.964	1	95792.2	-0.5969186	8.557826E-008	-0.0117739	7
	39	52	125.558	95895.3	-1028.587	1	95900.9	-0.6145388	8.341774E-008	-0.0117454	7
	40	54	99.734	96008.1	-1077.827	1	96014.1	-0.6431994	8.703724E-008	-0.0117646	7
	41	55	79.44915	96151.1	-1140.709	1	96157.9	-0.6797088	8.522923E-008	-0.0118009	7
	42	56	63.34459	96237.9	-1192.283	1	96245.2	-0.7097964	8.698771E-008	-0.0118009	7
	43	57	49.86702	96309	-1223.978	1	96316.8	-0.7281252	8.816276E-008	-0.0117999	7
	44	59	38.42213	96550.8	-1419.234	1	96561.2	-0.8421502	8.666249E-008	-0.0117738	7
	45	60	31.25	96726.7	-1552.044	1	96739.2	-0.9192693	8.981416E-008	-0.011802	7
	46	61	24.93351	96881.6	-1692.784	1	96896.4	-1.001011	9.12155E-008	-0.0117971	7
	47	63	20.03205	97080.3	-1874.999	1	97098.4	-1.106467	8.780772E-008	-0.0117727	7
	48	64	15.625	97332.7	-2084.085	1	97355	-1.226629	9.074005E-008	-0.0117996	7
	49	65	12.46675	97589.9	-2309.351	1	97617.2	-1.355585	9.269515E-008	-0.0118011	7
	50	67	9.9734	97853	-2563.043	1	97886.5	-1.500394	9.223405E-008	-0.0118019	7
	51	69	7.971939	98142.4	-2855.605	1	98183.9	-1.666639	9.312937E-008	-0.0117996	7
	52	71	6.351626	98501.3	-3188.287	1	98552.9	-1.8539	9.184818E-008	-0.0117729	7
	53	72	5.013369	98909.7	-3575.807	1	98974.3	-2.070469	9.788388E-008	-0.0117993	7
	54	75	3.985969	99334.4	-4004.68	1	99415.1	-2.308637	9.898407E-008	-0.0117996	7
	55	77	3.175813	99794.1	-4494.505	1	99895.2	-2.578734	9.775526E-008	-0.0117737	7
	56	80	2.516103	100305.9	-4980.342	1	100429.5	-2.842488	9.910622E-008	-0.0117877	7
	57	83	1.99553	100902.2	-5618.499	1	101058.5	-3.187087	1.024926E-007	-0.0117858	7
	58	86	1.587906	101575.9	-6350.617	1	101774.2	-3.577528	1.063769E-007	-0.0117869	7
	59	91	1.258052	102374	-7141.63	1	102622.8	-3.990501	1.104935E-007	-0.0117851	7
	60	96	0.997765	103256	-8083.36	1	103571.9	-4.476251	1.105463E-007	-0.011788	7
	61	101	0.7927448	104220.9	-9155.701	1	104622.3	-5.020486	1.141374E-007	-0.0117853	7
	62	107	0.6290258	105349.4	-10360.62	1	105857.6	-5.616714	1.183135E-007	-0.0117862	7
	63	115	0.4988825	106640.2	-11726.81	1	107283.1	-6.275379	1.238594E-007	-0.011785	7
	64	124	0.3985969	108126.6	-13311.85	1	108943	-7.018565	1.304817E-007	-0.0117871	7
	65	135	0.316723	109966	-15062.96	1	110992.9	-7.799739	1.351175E-007	-0.0117886	7
	66	149	0.2514753	112145.5	-17019.92	1	113429.7	-8.629719	1.420159E-007	-0.0117891	7
	67	166	0.1999787	114649.6	-19274.16	1	116258.4	-9.54297	1.521447E-007	-0.0117888	7
	68	187	0.1587906	117757.4	-21843.01	1	119766.1	-10.50845	1.662702E-007	-0.011789	7
	69	212	0.1260081	121434.1	-24542.32	1	123889.4	-11.4258	1.791053E-007	-0.0117886	7
	70	243	0.1001603	125747.4	-27300.86	1	128676.9	-12.24931	2.032517E-007	-0.0117889	7
