EXPLAIN
TAG	EISPOT
TITLE	LABEL	Potentiostatic EIS	Test &Identifier
DATE	LABEL	7/8/2016	Date
TIME	LABEL	13:57:33	Time
NOTES	NOTES	1	&Notes...
	
PSTAT	PSTAT	IFC1000-05175	Potentiostat
VDC	POTEN	0.00000E+000	T	DC &Voltage (V)
FREQINIT	QUANT	1.00000E+006	Initial Fre&q. (Hz)
FREQFINAL	QUANT	1.00000E+000	Final Fre&q. (Hz)
PTSPERDEC	QUANT	1.00000E+001	Points/&decade
VAC	QUANT	1.00000E+002	AC &Voltage (mV rms)
AREA	QUANT	0.00000E+000	&Area (cm^2)
CONDIT	TWOPARAM	F	1.50000E+001	0.00000E+000	Conditionin&g	Time(s)	E(V)
DELAY	TWOPARAM	F	6.00000E+001	0.00000E+000	Init. De&lay	Time(s)	Stab.(mV/s)
SPEED	SELECTOR	0	&Optimize for:
ZGUESS	QUANT	1.00000E+002	E&stimated Z (ohms)
OCVCURVE	TABLE	40
	Pt	T	Vf	Vm	Ach	Over
	#	s	V vs. Ref.	V	V	bits
	0	0.25	-2.04945E-002	-2.04945E-002	0.00000E+000	...........
	1	0.5	-2.04949E-002	-2.05175E-002	0.00000E+000	...........
	2	0.75	-2.04976E-002	-2.05397E-002	0.00000E+000	...........
	3	1	-2.05053E-002	-2.05627E-002	0.00000E+000	...........
	4	1.25	-2.05193E-002	-2.05835E-002	0.00000E+000	...........
	5	1.5	-2.05382E-002	-2.06041E-002	0.00000E+000	...........
	6	1.75	-2.05593E-002	-2.06244E-002	0.00000E+000	...........
	7	2	-2.05809E-002	-2.06446E-002	0.00000E+000	...........
	8	2.25	-2.06020E-002	-2.06631E-002	0.00000E+000	...........
	9	2.5	-2.06225E-002	-2.06810E-002	0.00000E+000	...........
	10	2.75	-2.06422E-002	-2.07003E-002	0.00000E+000	...........
	11	3	-2.06613E-002	-2.07189E-002	0.00000E+000	...........
	12	3.25	-2.06801E-002	-2.07358E-002	0.00000E+000	...........
	13	3.5	-2.06985E-002	-2.07530E-002	0.00000E+000	...........
	14	3.75	-2.07167E-002	-2.07717E-002	0.00000E+000	...........
	15	4	-2.07345E-002	-2.07892E-002	0.00000E+000	...........
	16	4.25	-2.07522E-002	-2.08052E-002	0.00000E+000	...........
	17	4.5	-2.07698E-002	-2.08228E-002	0.00000E+000	...........
	18	4.75	-2.07872E-002	-2.08386E-002	0.00000E+000	...........
	19	5	-2.08042E-002	-2.08547E-002	0.00000E+000	...........
	20	5.25	-2.08209E-002	-2.08694E-002	0.00000E+000	...........
	21	5.5	-2.08372E-002	-2.08868E-002	0.00000E+000	...........
	22	5.75	-2.08531E-002	-2.09017E-002	0.00000E+000	...........
	23	6	-2.08690E-002	-2.09164E-002	0.00000E+000	...........
	24	6.25	-2.08847E-002	-2.09319E-002	0.00000E+000	...........
	25	6.5	-2.09002E-002	-2.09472E-002	0.00000E+000	...........
	26	6.75	-2.09155E-002	-2.09618E-002	0.00000E+000	...........
	27	7	-2.09307E-002	-2.09767E-002	0.00000E+000	...........
	28	7.25	-2.09458E-002	-2.09925E-002	0.00000E+000	...........
	29	7.5	-2.09608E-002	-2.10063E-002	0.00000E+000	...........
	30	7.75	-2.09758E-002	-2.10216E-002	0.00000E+000	...........
	31	8	-2.09906E-002	-2.10345E-002	0.00000E+000	...........
	32	8.25	-2.10053E-002	-2.10502E-002	0.00000E+000	...........
	33	8.5	-2.10199E-002	-2.10655E-002	0.00000E+000	...........
	34	8.75	-2.10344E-002	-2.10799E-002	0.00000E+000	...........
	35	9	-2.10491E-002	-2.10936E-002	0.00000E+000	...........
	36	9.25	-2.10638E-002	-2.11088E-002	0.00000E+000	...........
	37	9.5	-2.10784E-002	-2.11219E-002	0.00000E+000	...........
	38	9.75	-2.10928E-002	-2.11359E-002	0.00000E+000	...........
	39	10	-2.11070E-002	-2.11502E-002	0.00000E+000	...........
EOC	QUANT	-0.021107	Open Circuit (V)
PSTATMODEL	IQUANT	48	Pstat Model
PSTATSECTION	LABEL	IFC1000-05175	Pstat Section
PSTATSERIALNO	LABEL	05175	Pstat Serial Number
CTRLMODE	IQUANT	1	Control Mode
IESTAB	IQUANT	0	I/E Stability
CASPEED	IQUANT	1	Control Amp Speed
CONVENTION	IQUANT	1	Current Convention
ICHRANGE	IQUANT	2	Ich Range
ICHRANGEMODE	TOGGLE	F	Ich Auto Range
ICHOFFSETENABLE	TOGGLE	T	Ich Offset Enable
ICHOFFSET	QUANT	0	Ich Offset (V)
ICHFILTER	IQUANT	4	Ich Filter
VCHRANGE	IQUANT	2	Vch Range
VCHRANGEMODE	TOGGLE	F	Vch Auto Range
VCHOFFSETENABLE	TOGGLE	T	Vch Offset Enable
VCHOFFSET	QUANT	0	Vch Offset (V)
VCHFILTER	IQUANT	4	Vch Filter
IERANGELOWERLIMIT	IQUANT	4	I/E Range Lower Limit
IERANGEMODE	TOGGLE	F	I/E AutoRange
IERANGE	IQUANT	9	I/E Range
ACHSELECT	IQUANT	4	Ach Select
CABLEID	IQUANT	14	Cable ID
DCCALDATE	LABEL	27.2.2015	DC Calibration Date
ACCALDATE	LABEL	27.2.2015	AC Calibration Date
FRAMEWORKVERSION	QUANT	6.2	Framework Version
INSTRUMENTVERSION	LABEL	3.20	Instrument Version
ZCURVE	TABLE
	Pt	Time	Freq	Zreal	Zimag	Zsig	Zmod	Zphz	Idc	Vdc	IERange
	#	s	Hz	ohm	ohm	V	ohm	°	A	V	#
	0	1	1000020	215.1425	2.008531	1	215.1519	0.5348874	6.360915E-007	-0.0203443	10
	1	2	794355.5	215.0547	1.055475	1	215.0573	0.2812018	4.472153E-007	-0.0203043	10
	2	2	630996.1	215.0716	0.3090254	1	215.0719	0.0823253	3.384798E-007	-0.020492	10
	3	2	501269.5	215.1712	-0.3586994	1	215.1716	-0.0955143	2.589376E-007	-0.0205919	10
	4	2	398144.5	215.3135	-0.969983	1	215.3157	-0.2581145	2.425488E-007	-0.0206397	10
	5	3	316230.5	215.5255	-1.515294	1	215.5308	-0.4028225	1.966556E-007	-0.0206918	10
	6	3	251191.4	215.7437	-2.054298	1	215.7535	-0.5455503	2.142807E-007	-0.0207197	10
	7	3	199628.9	215.9219	-2.614875	1	215.9377	-0.693834	2.360874E-007	-0.0207293	10
	8	3	158496.1	216.0765	-3.223811	1	216.1006	-0.8547761	1.827533E-007	-0.0207818	10
	9	3	125918	216.2525	-3.966952	1	216.2888	-1.05092	1.610037E-007	-0.0207884	10
	10	4	100019.5	216.4013	-4.872872	1	216.4562	-1.289954	-1.263323E-006	-0.0210019	10
	11	4	79511.72	216.8225	-5.604083	1	216.8949	-1.48056	-1.311027E-006	-0.0210054	10
	12	4	63105.47	216.5899	-7.547256	1	216.7214	-1.995712	-1.289224E-006	-0.021011	10
	13	4	50214.84	216.8686	-9.376536	1	217.0712	-2.475699	-1.247394E-006	-0.0210096	10
	14	5	39902.34	217.2399	-11.59873	1	217.5493	-3.056197	-1.279339E-006	-0.0210102	10
	15	5	31699.22	217.7363	-14.35191	1	218.2088	-3.771149	-1.283006E-006	-0.0210123	10
	16	5	25136.72	218.3756	-17.69615	1	219.0915	-4.632861	-1.282533E-006	-0.0210113	10
	17	5	19980.47	219.2154	-21.74353	1	220.2911	-5.664526	-1.263367E-006	-0.0210116	10
	18	6	15878.91	220.2357	-26.64416	1	221.8415	-6.898131	-1.296719E-006	-0.0210125	10
	19	6	12597.66	221.5579	-32.68959	1	223.9565	-8.393107	-1.23216E-006	-0.0210118	10
	20	6	10019.53	223.1483	-39.95081	1	226.6964	-10.15027	-1.268806E-006	-0.0210137	10
	21	6	7928.241	225.2681	-49.02502	1	230.5411	-12.27781	-1.374932E-006	-0.0210033	10
	22	6	6307.871	227.8703	-59.81195	1	235.5894	-14.70736	-1.397077E-006	-0.0210006	10
	23	7	5034.722	231.1544	-72.65205	1	242.3029	-17.44798	-1.093506E-006	-0.020978	10
	24	7	3993.056	235.4139	-88.64934	1	251.552	-20.63477	-1.085554E-006	-0.0209779	10
	25	7	3144.055	241.0149	-108.6978	1	264.3925	-24.2754	-1.069171E-006	-0.0209781	10
	26	7	2519.531	247.5929	-131.144	1	280.1803	-27.90908	-1.075904E-006	-0.0209797	10
	27	8	2000.762	256.2815	-159.2931	1	301.7524	-31.86323	-1.055443E-006	-0.0209779	10
	28	8	1580.669	267.4326	-193.7883	1	330.2637	-35.92802	2.135439E-007	-0.0209799	9
	29	8	1253.634	282.1431	-235.0729	1	367.2384	-39.80002	2.297026E-007	-0.0209805	9
	30	8	1000.702	300.8612	-283.1094	1	413.1203	-43.25883	2.339974E-007	-0.0209778	9
	31	8	790.0281	326.8594	-343.1422	1	473.9026	-46.39216	2.359874E-007	-0.0209787	9
	32	9	628.811	360.2796	-411.6258	1	547.0258	-48.80564	2.495998E-007	-0.0209809	9
	33	9	502.2321	403.9045	-490.0168	1	635.0239	-50.50238	2.606126E-007	-0.0209749	9
	34	9	400.1524	462.0908	-580.1672	1	741.702	-51.46343	2.299264E-007	-0.0209779	9
	35	9	315.5048	542.553	-686.0644	1	874.6703	-51.66237	2.613456E-007	-0.0209744	9
	36	10	252.0161	641.214	-794.1617	1	1020.71	-51.08225	2.354741E-007	-0.0209779	9
	37	10	200.3205	768.4802	-908.2482	1	1189.738	-49.76502	2.462623E-007	-0.0209792	9
	38	10	158.0056	930.6596	-1023.21	1	1383.143	-47.71193	2.89258E-007	-0.0209766	9
	39	10	125.558	1117.183	-1123.563	1	1584.453	-45.16314	2.342203E-007	-0.0209817	9
	40	10	99.734	1329.858	-1206.049	1	1795.293	-42.20491	2.630681E-007	-0.0209753	9
	41	11	79.44915	1555.494	-1262.352	1	2003.271	-39.06086	4.559129E-008	-0.0209982	9
	42	11	63.34459	1790.178	-1291.102	1	2207.188	-35.79969	6.55147E-008	-0.0209973	9
	43	11	49.86702	2036.982	-1291.679	1	2411.997	-32.37937	8.373853E-008	-0.0209987	9
	44	11	38.42213	2296.505	-1262.154	1	2620.49	-28.7931	6.697711E-008	-0.0210034	9
	45	12	31.25	2491.318	-1219.781	1	2773.902	-26.08695	9.472996E-008	-0.0209947	9
	46	12	24.93351	2680.34	-1171.657	1	2925.236	-23.61158	8.927452E-008	-0.0209963	9
	47	12	20.03205	2851.703	-1112.563	1	3061.046	-21.31273	6.988786E-008	-0.0209976	9
	48	13	15.625	3023.975	-1044.285	1	3199.212	-19.0516	-5.068454E-008	-0.021	8
	49	13	12.46675	3167.053	-982.952	1	3316.085	-17.24267	-2.68433E-008	-0.020999	8
	50	14	9.9734	3294.987	-925.3473	1	3422.457	-15.68659	-3.251435E-009	-0.0209972	8
	51	14	7.971939	3412.005	-872.1257	1	3521.701	-14.3381	1.075976E-008	-0.0209973	8
	52	15	6.351626	3520.681	-824.0392	1	3615.831	-13.17333	2.150613E-008	-0.0209978	8
	53	16	5.013369	3625.019	-780.7946	1	3708.154	-12.15526	2.82175E-008	-0.020998	8
	54	16	3.985969	3718.715	-745.7361	1	3792.751	-11.33946	4.846675E-008	-0.0209978	8
	55	18	3.175813	3805.795	-717.6248	1	3872.862	-10.67837	6.203759E-008	-0.0209992	8
	56	19	2.516103	3891.129	-693.3359	1	3952.417	-10.10314	5.822637E-008	-0.0209972	8
	57	21	1.99553	3971.469	-678.4646	1	4029.005	-9.69452	6.936762E-008	-0.0209969	8
	58	23	1.587906	4048.309	-669.7038	1	4103.329	-9.393259	8.782604E-008	-0.0209975	8
	59	26	1.258052	4124.9	-666.448	1	4178.392	-9.1778	9.193728E-008	-0.020997	8
	60	29	0.997765	4202.012	-668.8778	1	4254.915	-9.044482	7.249952E-008	-0.0209966	8
