EXPLAIN
TAG	EISPOT
TITLE	LABEL	Potentiostatic EIS	Test &Identifier
DATE	LABEL	22.9.2016	Date
TIME	LABEL	13:49:55	Time
NOTES	NOTES	1	&Notes...
	
PSTAT	PSTAT	IFC1000-05175	Potentiostat
VDC	POTEN	0.00000E+000	T	DC &Voltage (V)
FREQINIT	QUANT	1.00000E+006	Initial Fre&q. (Hz)
FREQFINAL	QUANT	1.00000E-001	Final Fre&q. (Hz)
PTSPERDEC	QUANT	1.00000E+001	Points/&decade
VAC	QUANT	1.00000E+002	AC &Voltage (mV rms)
AREA	QUANT	1.00000E+000	&Area (cm^2)
CONDIT	TWOPARAM	F	1.50000E+001	0.00000E+000	Conditionin&g	Time(s)	E(V)
DELAY	TWOPARAM	F	6.00000E+001	0.00000E+000	Init. De&lay	Time(s)	Stab.(mV/s)
SPEED	SELECTOR	1	&Optimize for:
ZGUESS	QUANT	1.00000E+002	E&stimated Z (ohms)
OCVCURVE	TABLE	40
	Pt	T	Vf	Vm	Ach	Over
	#	s	V vs. Ref.	V	V	bits
	0	0.25	-2.91952E-002	-2.91952E-002	0.00000E+000	...........
	1	0.5	-2.91979E-002	-2.93398E-002	0.00000E+000	...........
	2	0.75	-2.92153E-002	-2.94990E-002	0.00000E+000	...........
	3	1	-2.92663E-002	-2.96705E-002	0.00000E+000	...........
	4	1.25	-2.93613E-002	-2.98113E-002	0.00000E+000	...........
	5	1.5	-2.94921E-002	-2.99438E-002	0.00000E+000	...........
	6	1.75	-2.96394E-002	-3.00626E-002	0.00000E+000	...........
	7	2	-2.97865E-002	-3.02119E-002	0.00000E+000	...........
	8	2.25	-2.99279E-002	-3.03908E-002	0.00000E+000	...........
	9	2.5	-3.00683E-002	-3.05046E-002	0.00000E+000	...........
	10	2.75	-3.02116E-002	-3.06386E-002	0.00000E+000	...........
	11	3	-3.03556E-002	-3.08060E-002	0.00000E+000	...........
	12	3.25	-3.04983E-002	-3.09471E-002	0.00000E+000	...........
	13	3.5	-3.06415E-002	-3.10631E-002	0.00000E+000	...........
	14	3.75	-3.07846E-002	-3.12178E-002	0.00000E+000	...........
	15	4	-3.09250E-002	-3.13299E-002	0.00000E+000	...........
	16	4.25	-3.10611E-002	-3.14296E-002	0.00000E+000	...........
	17	4.5	-3.11909E-002	-3.15693E-002	0.00000E+000	...........
	18	4.75	-3.13149E-002	-3.17122E-002	0.00000E+000	...........
	19	5	-3.14378E-002	-3.18243E-002	0.00000E+000	...........
	20	5.25	-3.15630E-002	-3.19303E-002	0.00000E+000	...........
	21	5.5	-3.16877E-002	-3.20467E-002	0.00000E+000	...........
	22	5.75	-3.18084E-002	-3.21598E-002	0.00000E+000	...........
	23	6	-3.19244E-002	-3.22659E-002	0.00000E+000	...........
	24	6.25	-3.20373E-002	-3.23715E-002	0.00000E+000	...........
	25	6.5	-3.21481E-002	-3.24907E-002	0.00000E+000	...........
	26	6.75	-3.22575E-002	-3.25740E-002	0.00000E+000	...........
	27	7	-3.23651E-002	-3.26764E-002	0.00000E+000	...........
	28	7.25	-3.24697E-002	-3.27898E-002	0.00000E+000	...........
	29	7.5	-3.25722E-002	-3.28952E-002	0.00000E+000	...........
	30	7.75	-3.26750E-002	-3.29902E-002	0.00000E+000	...........
	31	8	-3.27784E-002	-3.30787E-002	0.00000E+000	...........
	32	8.25	-3.28804E-002	-3.31864E-002	0.00000E+000	...........
	33	8.5	-3.29798E-002	-3.32796E-002	0.00000E+000	...........
	34	8.75	-3.30771E-002	-3.33438E-002	0.00000E+000	...........
	35	9	-3.31704E-002	-3.33966E-002	0.00000E+000	...........
	36	9.25	-3.32569E-002	-3.35413E-002	0.00000E+000	...........
	37	9.5	-3.33393E-002	-3.36160E-002	0.00000E+000	...........
	38	9.75	-3.34239E-002	-3.36614E-002	0.00000E+000	...........
	39	10	-3.35099E-002	-3.37462E-002	0.00000E+000	...........
EOC	QUANT	-0.0335099	Open Circuit (V)
PSTATMODEL	IQUANT	48	Pstat Model
PSTATSECTION	LABEL	IFC1000-05175	Pstat Section
PSTATSERIALNO	LABEL	05175	Pstat Serial Number
CTRLMODE	IQUANT	1	Control Mode
IESTAB	IQUANT	0	I/E Stability
CASPEED	IQUANT	1	Control Amp Speed
CONVENTION	IQUANT	1	Current Convention
ICHRANGE	IQUANT	2	Ich Range
ICHRANGEMODE	TOGGLE	F	Ich Auto Range
ICHOFFSETENABLE	TOGGLE	T	Ich Offset Enable
ICHOFFSET	QUANT	0	Ich Offset (V)
ICHFILTER	IQUANT	4	Ich Filter
VCHRANGE	IQUANT	2	Vch Range
VCHRANGEMODE	TOGGLE	F	Vch Auto Range
VCHOFFSETENABLE	TOGGLE	T	Vch Offset Enable
VCHOFFSET	QUANT	0	Vch Offset (V)
VCHFILTER	IQUANT	4	Vch Filter
IERANGELOWERLIMIT	IQUANT	4	I/E Range Lower Limit
IERANGEMODE	TOGGLE	F	I/E AutoRange
IERANGE	IQUANT	9	I/E Range
ACHSELECT	IQUANT	4	Ach Select
CABLEID	IQUANT	14	Cable ID
DCCALDATE	LABEL	27.2.2015	DC Calibration Date
ACCALDATE	LABEL	27.2.2015	AC Calibration Date
FRAMEWORKVERSION	QUANT	6.2	Framework Version
INSTRUMENTVERSION	LABEL	3.20	Instrument Version
ZCURVE	TABLE
	Pt	Time	Freq	Zreal	Zimag	Zsig	Zmod	Zphz	Idc	Vdc	IERange
	#	s	Hz	ohm	ohm	V	ohm	°	A	V	#
	0	2	1000020	3447.611	-11006.8	1	11534.11	-72.60811	2.03462E-006	-0.0329956	9
	1	3	794355.5	5208.664	-13197.09	1	14187.79	-68.46171	2.185072E-006	-0.0329577	9
	2	4	630996.1	7682.783	-15416.28	1	17224.6	-63.51039	2.057844E-006	-0.0331766	9
	3	6	501269.5	10851.87	-17274.27	1	20400.08	-57.86255	2.029952E-006	-0.033174	9
	4	7	398144.5	14757.45	-18725.59	1	23841.77	-51.75872	2.022903E-006	-0.0332222	9
	5	9	316230.5	19144.45	-19227.93	1	27133.43	-45.12465	2.064274E-006	-0.0332649	9
	6	10	251191.4	23840.24	-18464.33	1	30154.41	-37.75787	1.234122E-006	-0.034006	8
	7	11	199628.9	27662.37	-17129.99	1	32536.8	-31.76797	1.25122E-006	-0.034007	8
	8	13	158496.1	30845	-15190.45	1	34382.61	-26.21918	1.278646E-006	-0.034057	8
	9	14	125918	33357.42	-13113.11	1	35842.3	-21.46024	1.285273E-006	-0.0340595	8
	10	15	100019.5	35080.69	-10992.29	1	36762.55	-17.39802	-6.590147E-008	-0.0334641	8
	11	17	79511.72	36271.36	-9108.168	1	37397.46	-14.09618	-6.469458E-008	-0.0334663	8
	12	18	63105.47	37192.7	-7407.214	1	37923.13	-11.26352	-6.470849E-008	-0.0334658	8
	13	20	50214.84	37670.55	-6049.665	1	38153.23	-9.123458	-6.330004E-008	-0.0334683	8
	14	21	39902.34	38030.3	-4964.244	1	38352.94	-7.436992	-5.140727E-008	-0.0334766	8
	15	22	31699.22	38295.32	-3984.785	1	38502.07	-5.940483	-5.206706E-008	-0.0334752	8
	16	24	25136.72	38474.07	-3181.239	1	38605.37	-4.726763	-5.561832E-008	-0.033471	8
	17	25	19980.47	38614.45	-2555.766	1	38698.94	-3.786699	-5.183704E-008	-0.0334717	8
	18	26	15878.91	38654.88	-2073.984	1	38710.48	-3.071196	-5.147468E-008	-0.0334723	8
	19	27	12597.66	38512.15	-1800.098	1	38554.2	-2.676117	-5.095161E-008	-0.0334724	8
	20	29	10019.53	38790.77	-1376.381	1	38815.18	-2.032126	-4.754819E-008	-0.0334712	8
	21	30	7928.241	38801.71	-863.0209	1	38811.31	-1.274153	5.360194E-008	-0.0331494	7
	22	31	6307.871	38867.33	-678.5981	1	38873.25	-1.000245	5.625945E-008	-0.0331497	7
	23	33	5034.722	38893.5	-601.2061	1	38898.14	-0.8855934	8.057628E-008	-0.0334689	7
	24	34	3993.056	38922.46	-528.502	1	38926.05	-0.7779332	8.419858E-008	-0.0334686	7
	25	35	3144.055	38954.78	-471.6125	1	38957.64	-0.6936269	8.636047E-008	-0.0334721	7
	26	37	2519.531	38986.16	-437.103	1	38988.61	-0.642359	8.780299E-008	-0.0334714	7
	27	38	2000.762	39020.39	-411.9681	1	39022.57	-0.6048928	9.076023E-008	-0.0334746	7
	28	39	1580.669	39062.42	-397.4222	1	39064.44	-0.5829088	9.229468E-008	-0.0334692	7
	29	41	1253.634	39103.37	-389.78	1	39105.32	-0.5711019	9.32097E-008	-0.0334722	7
	30	42	1000.702	39147.66	-389.4513	1	39149.6	-0.5699748	9.391065E-008	-0.0334674	7
	31	43	790.0281	39191.05	-392.6755	1	39193.02	-0.574057	9.396386E-008	-0.0334671	7
	32	44	628.811	39239.48	-401.6341	1	39241.53	-0.5864282	9.647096E-008	-0.0334743	7
	33	46	502.2321	39287.58	-417.944	1	39289.8	-0.6094936	9.760661E-008	-0.0334792	7
	34	47	400.1524	39349.32	-430.1303	1	39351.67	-0.6262795	9.680724E-008	-0.0334509	7
	35	48	315.5048	39400.3	-453.2027	1	39402.91	-0.6590167	1.007442E-007	-0.0334808	7
	36	49	252.0161	39461.21	-478.9169	1	39464.11	-0.6953303	1.002433E-007	-0.033455	7
	37	51	200.3205	39524.98	-509.7592	1	39528.26	-0.7389109	1.012655E-007	-0.0334551	7
	38	52	158.0056	39586.06	-546.3792	1	39589.83	-0.790764	1.056535E-007	-0.0334818	7
	39	53	125.558	39657.13	-587.7007	1	39661.49	-0.8490353	1.034661E-007	-0.033451	7
	40	54	99.734	39728.76	-638.0888	1	39733.89	-0.9201558	1.064782E-007	-0.0334699	7
	41	56	79.44915	39811.82	-695.3619	1	39817.89	-1.000639	9.815314E-008	-0.0335031	7
	42	57	63.34459	39898.88	-763.2238	1	39906.18	-1.095875	9.774197E-008	-0.0335046	7
	43	58	49.86702	40003.25	-843.9236	1	40012.16	-1.208554	9.902683E-008	-0.0335049	7
	44	60	38.42213	40116.74	-947.9661	1	40127.94	-1.353658	9.593325E-008	-0.0334759	7
	45	61	31.25	40224.34	-1043.509	1	40237.87	-1.486047	9.811585E-008	-0.0335036	7
	46	62	24.93351	40349.02	-1162.007	1	40365.75	-1.649598	9.69106E-008	-0.0335075	7
	47	64	20.03205	40483.84	-1291.003	1	40504.42	-1.826506	9.275303E-008	-0.0334696	7
	48	65	15.625	40653.63	-1460.333	1	40679.85	-2.057257	9.600213E-008	-0.0335023	7
	49	67	12.46675	40825.47	-1638.766	1	40858.35	-2.298663	9.635636E-008	-0.033506	7
	50	68	9.9734	41017.75	-1833.761	1	41058.71	-2.559792	9.818904E-008	-0.0335045	7
	51	70	7.971939	41237.14	-2059.706	1	41288.54	-2.859424	9.866739E-008	-0.0335042	7
	52	72	6.351626	41479.46	-2320.818	1	41544.34	-3.202418	9.537129E-008	-0.0334724	7
	53	74	5.013369	41764.77	-2628.118	1	41847.38	-3.600685	9.671568E-008	-0.033504	7
	54	76	3.985969	42083.67	-2967.889	1	42188.19	-4.034022	9.84342E-008	-0.033503	7
	55	78	3.175813	42439.32	-3353.532	1	42571.61	-4.518094	9.621004E-008	-0.0334733	7
	56	81	2.516103	42840.55	-3756.371	1	43004.92	-5.011027	1.006274E-007	-0.0334902	7
	57	84	1.99553	43306.31	-4273.225	1	43516.63	-5.635385	1.047654E-007	-0.0334901	7
	58	88	1.587906	43835.7	-4849.781	1	44103.16	-6.313267	1.122278E-007	-0.0334912	7
	59	92	1.258052	44457.79	-5516.091	1	44798.69	-7.072816	1.211874E-007	-0.0334905	7
	60	97	0.997765	45187.32	-6253.702	1	45618	-7.879403	1.262209E-007	-0.0334888	7
	61	102	0.7927448	45996.77	-7093.34	1	46540.5	-8.766743	1.361968E-007	-0.0334894	7
	62	109	0.6290258	46914.71	-8020.155	1	47595.3	-9.70104	1.450664E-007	-0.0334895	7
	63	116	0.4988825	47991.54	-9067.97	1	48840.72	-10.69985	1.55343E-007	-0.0334894	7
	64	125	0.3985969	49168.07	-10183.43	1	50211.56	-11.70136	1.626466E-007	-0.0334922	7
	65	137	0.316723	50571.66	-11444.46	1	51850.45	-12.75136	1.697709E-007	-0.0334916	7
	66	150	0.2514753	52216.66	-12822.01	1	53767.86	-13.79624	1.789267E-007	-0.0334916	7
	67	167	0.1999787	54066.13	-14291.8	1	55923.18	-14.80685	1.935846E-007	-0.0334903	7
	68	189	0.1587906	56204.2	-15919	1	58415.12	-15.81398	2.048327E-007	-0.0334906	7
	69	214	0.1260081	58623.66	-17586.41	1	61204.7	-16.69863	2.170207E-007	-0.033491	7
	70	244	0.1001603	61331.42	-19320.44	1	64302.59	-17.48531	2.252014E-007	-0.0334911	7
