EXPLAIN
TAG	EISPOT
TITLE	LABEL	Potentiostatic EIS	Test &Identifier
DATE	LABEL	21.9.2016	Date
TIME	LABEL	14:19:51	Time
NOTES	NOTES	1	&Notes...
	
PSTAT	PSTAT	IFC1000-05175	Potentiostat
VDC	POTEN	0.00000E+000	T	DC &Voltage (V)
FREQINIT	QUANT	1.00000E+006	Initial Fre&q. (Hz)
FREQFINAL	QUANT	1.00000E-001	Final Fre&q. (Hz)
PTSPERDEC	QUANT	1.00000E+001	Points/&decade
VAC	QUANT	1.00000E+002	AC &Voltage (mV rms)
AREA	QUANT	1.00000E+000	&Area (cm^2)
CONDIT	TWOPARAM	F	1.50000E+001	0.00000E+000	Conditionin&g	Time(s)	E(V)
DELAY	TWOPARAM	F	6.00000E+001	0.00000E+000	Init. De&lay	Time(s)	Stab.(mV/s)
SPEED	SELECTOR	1	&Optimize for:
ZGUESS	QUANT	1.00000E+002	E&stimated Z (ohms)
OCVCURVE	TABLE	40
	Pt	T	Vf	Vm	Ach	Over
	#	s	V vs. Ref.	V	V	bits
	0	0.25	-2.55500E-002	-2.55500E-002	0.00000E+000	...........
	1	0.5	-2.55504E-002	-2.55719E-002	0.00000E+000	...........
	2	0.75	-2.55528E-002	-2.55833E-002	0.00000E+000	...........
	3	1	-2.55591E-002	-2.56017E-002	0.00000E+000	...........
	4	1.25	-2.55699E-002	-2.56184E-002	0.00000E+000	...........
	5	1.5	-2.55840E-002	-2.56362E-002	0.00000E+000	...........
	6	1.75	-2.56001E-002	-2.56518E-002	0.00000E+000	...........
	7	2	-2.56169E-002	-2.56654E-002	0.00000E+000	...........
	8	2.25	-2.56335E-002	-2.56773E-002	0.00000E+000	...........
	9	2.5	-2.56490E-002	-2.56889E-002	0.00000E+000	...........
	10	2.75	-2.56631E-002	-2.57017E-002	0.00000E+000	...........
	11	3	-2.56761E-002	-2.57113E-002	0.00000E+000	...........
	12	3.25	-2.56880E-002	-2.57126E-002	0.00000E+000	...........
	13	3.5	-2.56985E-002	-2.57200E-002	0.00000E+000	...........
	14	3.75	-2.57070E-002	-2.57299E-002	0.00000E+000	...........
	15	4	-2.57142E-002	-2.57361E-002	0.00000E+000	...........
	16	4.25	-2.57210E-002	-2.57372E-002	0.00000E+000	...........
	17	4.5	-2.57275E-002	-2.57392E-002	0.00000E+000	...........
	18	4.75	-2.57328E-002	-2.57454E-002	0.00000E+000	...........
	19	5	-2.57370E-002	-2.57486E-002	0.00000E+000	...........
	20	5.25	-2.57408E-002	-2.57538E-002	0.00000E+000	...........
	21	5.5	-2.57445E-002	-2.57507E-002	0.00000E+000	...........
	22	5.75	-2.57479E-002	-2.57516E-002	0.00000E+000	...........
	23	6	-2.57502E-002	-2.57489E-002	0.00000E+000	...........
	24	6.25	-2.57511E-002	-2.57510E-002	0.00000E+000	...........
	25	6.5	-2.57509E-002	-2.57443E-002	0.00000E+000	...........
	26	6.75	-2.57500E-002	-2.57442E-002	0.00000E+000	...........
	27	7	-2.57483E-002	-2.57381E-002	0.00000E+000	...........
	28	7.25	-2.57458E-002	-2.57310E-002	0.00000E+000	...........
	29	7.5	-2.57423E-002	-2.57283E-002	0.00000E+000	...........
	30	7.75	-2.57378E-002	-2.57180E-002	0.00000E+000	...........
	31	8	-2.57330E-002	-2.57435E-002	0.00000E+000	...........
	32	8.25	-2.57303E-002	-2.57507E-002	0.00000E+000	...........
	33	8.5	-2.57321E-002	-2.57534E-002	0.00000E+000	...........
	34	8.75	-2.57381E-002	-2.57523E-002	0.00000E+000	...........
	35	9	-2.57447E-002	-2.57439E-002	0.00000E+000	...........
	36	9.25	-2.57487E-002	-2.57402E-002	0.00000E+000	...........
	37	9.5	-2.57485E-002	-2.57301E-002	0.00000E+000	...........
	38	9.75	-2.57448E-002	-2.57195E-002	0.00000E+000	...........
	39	10	-2.57384E-002	-2.57101E-002	0.00000E+000	...........
EOC	QUANT	-0.0257384	Open Circuit (V)
PSTATMODEL	IQUANT	48	Pstat Model
PSTATSECTION	LABEL	IFC1000-05175	Pstat Section
PSTATSERIALNO	LABEL	05175	Pstat Serial Number
CTRLMODE	IQUANT	1	Control Mode
IESTAB	IQUANT	0	I/E Stability
CASPEED	IQUANT	1	Control Amp Speed
CONVENTION	IQUANT	1	Current Convention
ICHRANGE	IQUANT	2	Ich Range
ICHRANGEMODE	TOGGLE	F	Ich Auto Range
ICHOFFSETENABLE	TOGGLE	T	Ich Offset Enable
ICHOFFSET	QUANT	0	Ich Offset (V)
ICHFILTER	IQUANT	4	Ich Filter
VCHRANGE	IQUANT	2	Vch Range
VCHRANGEMODE	TOGGLE	F	Vch Auto Range
VCHOFFSETENABLE	TOGGLE	T	Vch Offset Enable
VCHOFFSET	QUANT	0	Vch Offset (V)
VCHFILTER	IQUANT	4	Vch Filter
IERANGELOWERLIMIT	IQUANT	4	I/E Range Lower Limit
IERANGEMODE	TOGGLE	F	I/E AutoRange
IERANGE	IQUANT	9	I/E Range
ACHSELECT	IQUANT	4	Ach Select
CABLEID	IQUANT	14	Cable ID
DCCALDATE	LABEL	27.2.2015	DC Calibration Date
ACCALDATE	LABEL	27.2.2015	AC Calibration Date
FRAMEWORKVERSION	QUANT	6.2	Framework Version
INSTRUMENTVERSION	LABEL	3.20	Instrument Version
ZCURVE	TABLE
	Pt	Time	Freq	Zreal	Zimag	Zsig	Zmod	Zphz	Idc	Vdc	IERange
	#	s	Hz	ohm	ohm	V	ohm	°	A	V	#
	0	1	1000020	444.1345	-7.836393	1	444.2036	-1.010833	1.686268E-006	-0.0253277	9
	1	2	794355.5	444.7667	-7.373408	1	444.8279	-0.9497708	2.089896E-006	-0.0251524	9
	2	3	630996.1	445.2439	-6.397499	1	445.2898	-0.8231994	1.838857E-006	-0.0253429	9
	3	5	501269.5	445.6043	-5.643605	1	445.6401	-0.7256156	1.847698E-006	-0.0254401	9
	4	6	398144.5	445.9307	-5.054867	1	445.9594	-0.649451	1.79061E-006	-0.0254975	9
	5	8	316230.5	446.2366	-4.618971	1	446.2605	-0.5930444	1.789345E-006	-0.0255363	9
	6	9	251191.4	446.5388	-4.405113	1	446.5605	-0.5652055	1.743128E-006	-0.0255798	9
	7	11	199628.9	446.846	-4.33225	1	446.867	-0.5554752	1.725322E-006	-0.0255928	9
	8	12	158496.1	447.167	-4.468796	1	447.1893	-0.5725705	1.733995E-006	-0.0256023	9
	9	14	125918	447.5657	-4.748226	1	447.5909	-0.6078283	1.689805E-006	-0.0256571	9
	10	15	100019.5	448.0362	-5.13733	1	448.0656	-0.6569434	-3.267689E-007	-0.0257463	9
	11	17	79511.72	448.7321	-5.567841	1	448.7666	-0.7108862	-3.51056E-007	-0.025751	9
	12	18	63105.47	449.2337	-6.383617	1	449.279	-0.814119	-3.610801E-007	-0.025752	9
	13	20	50214.84	450.0252	-7.137632	1	450.0818	-0.9086644	-3.753316E-007	-0.025754	9
	14	21	39902.34	450.918	-8.033074	1	450.9896	-1.020613	-4.271327E-007	-0.0257561	9
	15	23	31699.22	451.8958	-9.048519	1	451.9864	-1.147107	-4.305892E-007	-0.0257535	9
	16	24	25136.72	453.0264	-10.20969	1	453.1414	-1.291035	-4.406925E-007	-0.0257544	9
	17	26	19980.47	454.2622	-11.52566	1	454.4084	-1.453412	-4.484625E-007	-0.025757	9
	18	27	15878.91	455.6347	-12.99116	1	455.8199	-1.633188	-4.726787E-007	-0.0257566	9
	19	29	12597.66	457.178	-14.68872	1	457.4139	-1.840229	-4.770924E-007	-0.0257574	9
	20	30	10019.53	458.9017	-16.58725	1	459.2014	-2.070086	-4.787847E-007	-0.0257567	9
	21	32	7928.241	460.8646	-18.82185	1	461.2487	-2.338677	-5.256567E-007	-0.0257264	9
	22	33	6307.871	462.9943	-21.29126	1	463.4836	-2.63295	-5.353291E-007	-0.0257289	9
	23	35	5034.722	465.3681	-24.07519	1	465.9904	-2.96148	-3.325201E-007	-0.0257294	9
	24	36	3993.056	468.0869	-27.39042	1	468.8876	-3.348883	-3.433617E-007	-0.0257265	9
	25	38	3144.055	471.2587	-31.31784	1	472.2982	-3.802043	-3.482699E-007	-0.0257271	9
	26	39	2519.531	474.5975	-35.51361	1	475.9244	-4.279405	-3.64129E-007	-0.0257283	9
	27	41	2000.762	478.5358	-40.52792	1	480.2489	-4.840914	-3.754017E-007	-0.0257276	9
	28	42	1580.669	483.1384	-46.42182	1	485.3635	-5.488353	-3.856745E-007	-0.0257266	9
	29	44	1253.634	488.3417	-53.11024	1	491.2213	-6.206883	-3.790376E-007	-0.0257281	9
	30	45	1000.702	494.1335	-60.56688	1	497.8315	-6.987996	-4.008888E-007	-0.0257258	9
	31	46	790.0281	501.1395	-69.53229	1	505.9402	-7.899264	-4.083248E-007	-0.0257268	9
	32	48	628.811	508.9421	-79.44152	1	515.1049	-8.871792	-4.001333E-007	-0.0257287	9
	33	49	502.2321	517.8236	-90.55991	1	525.6828	-9.91989	-4.098619E-007	-0.0257235	9
	34	51	400.1524	528.1691	-103.2718	1	538.1707	-11.06335	-4.276092E-007	-0.0257277	9
	35	52	315.5048	540.7551	-118.3849	1	553.5622	-12.34866	-4.176895E-007	-0.0257226	9
	36	54	252.0161	554.5975	-134.4942	1	570.6724	-13.63151	-4.526658E-007	-0.0257249	9
	37	55	200.3205	570.986	-152.9087	1	591.1058	-14.99189	-4.623115E-007	-0.0257287	9
	38	56	158.0056	590.7037	-174.1176	1	615.8309	-16.42356	-4.381932E-007	-0.0257291	9
	39	58	125.558	612.8304	-196.8171	1	643.6599	-17.80498	-4.489597E-007	-0.0257295	9
	40	59	99.734	638.4175	-221.7606	1	675.8362	-19.15518	-4.411828E-007	-0.0257246	9
	41	61	79.44915	668.3115	-248.739	1	713.0998	-20.41477	-1.854075E-006	-0.025752	9
	42	62	63.34459	701.1799	-277.6107	1	754.1359	-21.59958	-1.700741E-006	-0.025747	9
	43	64	49.86702	740.3666	-310.205	1	802.7265	-22.73312	-1.588471E-006	-0.0257473	9
	44	65	38.42213	788.7661	-348.2662	1	862.2304	-23.82303	-1.494063E-006	-0.0257537	9
	45	67	31.25	831.7463	-380.2219	1	914.533	-24.56689	-1.398225E-006	-0.0257463	9
	46	68	24.93351	883.5869	-417.4883	1	977.252	-25.29039	-1.486047E-006	-0.0257494	9
	47	70	20.03205	938.455	-455.3881	1	1043.109	-25.88512	-1.428195E-006	-0.0257492	9
	48	71	15.625	1006.977	-501.1573	1	1124.794	-26.45884	-1.326278E-006	-0.0257512	9
	49	73	12.46675	1075.205	-545.306	1	1205.58	-26.89252	-1.26749E-006	-0.0257481	9
	50	75	9.9734	1148.651	-591.6836	1	1292.087	-27.25352	-1.227908E-006	-0.0257471	9
	51	76	7.971939	1228.908	-641.1271	1	1386.095	-27.55126	-1.189828E-006	-0.0257459	9
	52	79	6.351626	1317.415	-694.2249	1	1489.138	-27.78743	-1.16867E-006	-0.0257529	9
	53	81	5.013369	1418.554	-753.2472	1	1606.137	-27.96815	-1.114071E-006	-0.0257495	9
	54	83	3.985969	1523.94	-812.9745	1	1727.229	-28.07853	-1.09438E-006	-0.0257462	9
	55	86	3.175813	1636.57	-875.04	1	1855.817	-28.13249	-1.098171E-006	-0.0257513	9
	56	89	2.516103	1762.181	-939.8605	1	1997.153	-28.07326	-1.117781E-006	-0.0257453	9
	57	92	1.99553	1893.388	-1009.247	1	2145.576	-28.05929	-1.1074E-006	-0.0257462	9
	58	96	1.587906	2033.539	-1082.59	1	2303.754	-28.02939	-1.132726E-006	-0.0257497	9
	59	100	1.258052	2185.172	-1160.882	1	2474.394	-27.97967	-1.163183E-006	-0.0257478	9
	60	105	0.997765	2346.411	-1243.993	1	2655.779	-27.93111	-1.27338E-006	-0.0257493	9
	61	111	0.7927448	2514.863	-1331.958	1	2845.813	-27.90724	-1.296467E-006	-0.025749	9
	62	117	0.6290258	2696.557	-1428.208	1	3051.426	-27.90755	-1.324176E-006	-0.0257484	9
	63	125	0.4988825	2888.101	-1531.622	1	3269.097	-27.93797	-1.391462E-006	-0.0257498	8
	64	134	0.3985969	3088.311	-1641.806	1	3497.598	-27.99597	-1.432705E-006	-0.0257504	8
	65	145	0.316723	3306.487	-1763.18	1	3747.22	-28.0687	-1.508027E-006	-0.0257507	8
	66	159	0.2514753	3541.143	-1894.809	1	4016.216	-28.15052	-1.599544E-006	-0.0257501	8
	67	176	0.1999787	3793.774	-2035.748	1	4305.46	-28.21812	-1.69773E-006	-0.0257492	8
	68	197	0.1587906	4069.748	-2185.642	1	4619.511	-28.23785	-1.806887E-006	-0.0257486	8
	69	223	0.1260081	4372.124	-2340.551	1	4959.198	-28.1617	-1.962375E-006	-0.0257491	8
	70	253	0.1001603	4704.88	-2501.574	1	5328.58	-27.99948	-2.159467E-006	-0.0257494	8
