EXPLAIN
TAG	EISPOT
TITLE	LABEL	Potentiostatic EIS	Test &Identifier
DATE	LABEL	7/8/2016	Date
TIME	LABEL	13:49:45	Time
NOTES	NOTES	1	&Notes...
	
PSTAT	PSTAT	IFC1000-05175	Potentiostat
VDC	POTEN	0.00000E+000	T	DC &Voltage (V)
FREQINIT	QUANT	1.00000E+006	Initial Fre&q. (Hz)
FREQFINAL	QUANT	1.00000E+000	Final Fre&q. (Hz)
PTSPERDEC	QUANT	1.00000E+001	Points/&decade
VAC	QUANT	1.00000E+002	AC &Voltage (mV rms)
AREA	QUANT	0.00000E+000	&Area (cm^2)
CONDIT	TWOPARAM	F	1.50000E+001	0.00000E+000	Conditionin&g	Time(s)	E(V)
DELAY	TWOPARAM	F	6.00000E+001	0.00000E+000	Init. De&lay	Time(s)	Stab.(mV/s)
SPEED	SELECTOR	0	&Optimize for:
ZGUESS	QUANT	1.00000E+002	E&stimated Z (ohms)
OCVCURVE	TABLE	40
	Pt	T	Vf	Vm	Ach	Over
	#	s	V vs. Ref.	V	V	bits
	0	0.25	-8.98826E-003	-8.98826E-003	0.00000E+000	...........
	1	0.5	-8.98818E-003	-8.98401E-003	0.00000E+000	...........
	2	0.75	-8.98769E-003	-8.98023E-003	0.00000E+000	...........
	3	1	-8.98626E-003	-8.97418E-003	0.00000E+000	...........
	4	1.25	-8.98358E-003	-8.97059E-003	0.00000E+000	...........
	5	1.5	-8.97981E-003	-8.96635E-003	0.00000E+000	...........
	6	1.75	-8.97546E-003	-8.96167E-003	0.00000E+000	...........
	7	2	-8.97103E-003	-8.95969E-003	0.00000E+000	...........
	8	2.25	-8.96682E-003	-8.95619E-003	0.00000E+000	...........
	9	2.5	-8.96302E-003	-8.95278E-003	0.00000E+000	...........
	10	2.75	-8.95958E-003	-8.94972E-003	0.00000E+000	...........
	11	3	-8.95632E-003	-8.94631E-003	0.00000E+000	...........
	12	3.25	-8.95310E-003	-8.94294E-003	0.00000E+000	...........
	13	3.5	-8.94985E-003	-8.93962E-003	0.00000E+000	...........
	14	3.75	-8.94656E-003	-8.93703E-003	0.00000E+000	...........
	15	4	-8.94334E-003	-8.93515E-003	0.00000E+000	...........
	16	4.25	-8.94036E-003	-8.93438E-003	0.00000E+000	...........
	17	4.5	-8.93780E-003	-8.93096E-003	0.00000E+000	...........
	18	4.75	-8.93561E-003	-8.92833E-003	0.00000E+000	...........
	19	5	-8.93344E-003	-8.92451E-003	0.00000E+000	...........
	20	5.25	-8.93099E-003	-8.92194E-003	0.00000E+000	...........
	21	5.5	-8.92819E-003	-8.91910E-003	0.00000E+000	...........
	22	5.75	-8.92523E-003	-8.91733E-003	0.00000E+000	...........
	23	6	-8.92237E-003	-8.91500E-003	0.00000E+000	...........
	24	6.25	-8.91976E-003	-8.91271E-003	0.00000E+000	...........
	25	6.5	-8.91737E-003	-8.91007E-003	0.00000E+000	...........
	26	6.75	-8.91506E-003	-8.90726E-003	0.00000E+000	...........
	27	7	-8.91268E-003	-8.90521E-003	0.00000E+000	...........
	28	7.25	-8.91021E-003	-8.90192E-003	0.00000E+000	...........
	29	7.5	-8.90765E-003	-8.89919E-003	0.00000E+000	...........
	30	7.75	-8.90498E-003	-8.89554E-003	0.00000E+000	...........
	31	8	-8.90214E-003	-8.89285E-003	0.00000E+000	...........
	32	8.25	-8.89916E-003	-8.88999E-003	0.00000E+000	...........
	33	8.5	-8.89611E-003	-8.88620E-003	0.00000E+000	...........
	34	8.75	-8.89304E-003	-8.88402E-003	0.00000E+000	...........
	35	9	-8.88998E-003	-8.88091E-003	0.00000E+000	...........
	36	9.25	-8.88694E-003	-8.87672E-003	0.00000E+000	...........
	37	9.5	-8.88388E-003	-8.87388E-003	0.00000E+000	...........
	38	9.75	-8.88069E-003	-8.87008E-003	0.00000E+000	...........
	39	10	-8.87732E-003	-8.86517E-003	0.00000E+000	...........
EOC	QUANT	-0.0088773	Open Circuit (V)
PSTATMODEL	IQUANT	48	Pstat Model
PSTATSECTION	LABEL	IFC1000-05175	Pstat Section
PSTATSERIALNO	LABEL	05175	Pstat Serial Number
CTRLMODE	IQUANT	1	Control Mode
IESTAB	IQUANT	0	I/E Stability
CASPEED	IQUANT	1	Control Amp Speed
CONVENTION	IQUANT	1	Current Convention
ICHRANGE	IQUANT	2	Ich Range
ICHRANGEMODE	TOGGLE	F	Ich Auto Range
ICHOFFSETENABLE	TOGGLE	T	Ich Offset Enable
ICHOFFSET	QUANT	0	Ich Offset (V)
ICHFILTER	IQUANT	4	Ich Filter
VCHRANGE	IQUANT	2	Vch Range
VCHRANGEMODE	TOGGLE	F	Vch Auto Range
VCHOFFSETENABLE	TOGGLE	T	Vch Offset Enable
VCHOFFSET	QUANT	0	Vch Offset (V)
VCHFILTER	IQUANT	4	Vch Filter
IERANGELOWERLIMIT	IQUANT	4	I/E Range Lower Limit
IERANGEMODE	TOGGLE	F	I/E AutoRange
IERANGE	IQUANT	9	I/E Range
ACHSELECT	IQUANT	4	Ach Select
CABLEID	IQUANT	14	Cable ID
DCCALDATE	LABEL	27.2.2015	DC Calibration Date
ACCALDATE	LABEL	27.2.2015	AC Calibration Date
FRAMEWORKVERSION	QUANT	6.2	Framework Version
INSTRUMENTVERSION	LABEL	3.20	Instrument Version
ZCURVE	TABLE
	Pt	Time	Freq	Zreal	Zimag	Zsig	Zmod	Zphz	Idc	Vdc	IERange
	#	s	Hz	ohm	ohm	V	ohm	°	A	V	#
	0	1	1000020	214.8428	1.652201	1	214.8492	0.4406118	5.831785E-007	-0.0084335	10
	1	2	794355.5	214.7341	0.7003274	1	214.7352	0.1868621	4.720165E-007	-0.0083571	10
	2	2	630996.1	214.7682	-0.0454302	1	214.7682	-0.0121199	3.495556E-007	-0.0085286	10
	3	2	501269.5	214.854	-0.7470792	1	214.8553	-0.1992251	3.274338E-007	-0.0086055	10
	4	2	398144.5	215.0362	-1.38992	1	215.0407	-0.3703349	2.450857E-007	-0.0086599	10
	5	3	316230.5	215.2511	-2.000695	1	215.2604	-0.5325317	2.320486E-007	-0.008696	10
	6	3	251191.4	215.5103	-2.589337	1	215.5258	-0.6883708	1.851261E-007	-0.0087226	10
	7	3	199628.9	215.7195	-3.250765	1	215.744	-0.8633481	2.107622E-007	-0.0087347	10
	8	3	158496.1	215.9541	-4.003758	1	215.9912	-1.062134	1.674007E-007	-0.0087878	10
	9	4	125918	216.1783	-4.887448	1	216.2336	-1.295146	1.702242E-007	-0.0087955	10
	10	4	100019.5	216.4151	-5.965378	1	216.4973	-1.57893	-1.211839E-006	-0.0090081	10
	11	4	79511.72	216.9478	-6.880463	1	217.0569	-1.816517	-1.273211E-006	-0.0090119	10
	12	4	63105.47	216.8347	-9.047892	1	217.0234	-2.389403	-1.282013E-006	-0.0090168	10
	13	5	50214.84	217.2595	-11.12379	1	217.5441	-2.931012	-1.248731E-006	-0.0090175	10
	14	5	39902.34	217.8098	-13.68182	1	218.2391	-3.594338	-1.268937E-006	-0.009014	10
	15	5	31699.22	218.532	-16.75708	1	219.1735	-4.384871	-1.309384E-006	-0.0090185	10
	16	5	25136.72	219.4499	-20.50821	1	220.4061	-5.338944	-1.25236E-006	-0.0090176	10
	17	6	19980.47	220.5864	-25.00674	1	221.9993	-6.467715	-1.25696E-006	-0.0090207	10
	18	6	15878.91	221.9938	-30.45003	1	224.0724	-7.8103	-1.265443E-006	-0.0090179	10
	19	6	12597.66	223.7562	-37.08863	1	226.8092	-9.411472	-1.229826E-006	-0.0090187	10
	20	6	10019.53	225.9425	-45.06718	1	230.3932	-11.28035	-1.220438E-006	-0.0090167	10
	21	7	7928.241	228.7899	-54.94463	1	235.295	-13.50403	-1.324296E-006	-0.0090035	10
	22	7	6307.871	232.3151	-66.59313	1	241.6712	-15.99495	-1.369038E-006	-0.0090037	10
	23	7	5034.722	236.7304	-80.39622	1	250.0096	-18.75805	-1.098233E-006	-0.0089824	10
	24	7	3993.056	242.5078	-97.3697	1	261.3253	-21.87603	-1.06632E-006	-0.0089811	10
	25	7	3144.055	250.1167	-118.3743	1	276.7144	-25.32708	-1.093064E-006	-0.0089831	10
	26	8	2519.531	259.0539	-141.537	1	295.1976	-28.65048	-1.064058E-006	-0.0089837	10
	27	8	2000.762	270.8096	-170.1087	1	319.8043	-32.13493	-1.084323E-006	-0.0089832	10
	28	8	1580.669	285.7862	-204.4133	1	351.3667	-35.57488	5.150658E-008	-0.0089857	9
	29	8	1253.634	305.0761	-244.5755	1	391.0098	-38.71869	6.323377E-008	-0.0089834	9
	30	9	1000.702	329.0249	-290.1718	1	438.6993	-41.40954	6.629041E-008	-0.0089802	9
	31	9	790.0281	361.2243	-345.6103	1	499.9294	-43.73454	6.455923E-008	-0.0089822	9
	32	9	628.811	401.0986	-406.9617	1	571.4	-45.41572	7.088588E-008	-0.0089855	9
	33	9	502.2321	450.9762	-474.9016	1	654.913	-46.48024	6.997598E-008	-0.0089805	9
	34	9	400.1524	514.4528	-550.3263	1	753.3397	-46.92963	5.784085E-008	-0.0089817	9
	35	10	315.5048	597.7923	-635.3827	1	872.3914	-46.74598	8.037679E-008	-0.0089817	9
	36	10	252.0161	694.6614	-718.6951	1	999.538	-45.9742	6.980284E-008	-0.0089821	9
	37	10	200.3205	813.328	-803.1672	1	1143.057	-44.63986	6.590112E-008	-0.008985	9
	38	10	158.0056	957.193	-885.1038	1	1303.697	-42.75917	6.988875E-008	-0.0089787	9
	39	10	125.558	1115.66	-954.436	1	1468.211	-40.54665	5.315903E-008	-0.0089846	9
	40	11	99.734	1291.016	-1010.451	1	1639.431	-38.04955	7.507919E-008	-0.0089804	9
	41	11	79.44915	1473.933	-1048.656	1	1808.911	-35.43063	-1.603445E-007	-0.0089958	9
	42	11	63.34459	1662.347	-1067.763	1	1975.732	-32.71354	-1.625514E-007	-0.0090032	9
	43	11	49.86702	1861.374	-1067.361	1	2145.687	-29.8311	-1.630107E-007	-0.0090031	9
	44	12	38.42213	2073.186	-1044.3	1	2321.349	-26.7352	-1.809371E-007	-0.0090054	9
	45	12	31.25	2233.999	-1011.092	1	2452.153	-24.35116	-1.522187E-007	-0.009005	9
	46	12	24.93351	2392.062	-972.221	1	2582.087	-22.11861	-1.838346E-007	-0.0089998	9
	47	13	20.03205	2536.032	-923.133	1	2698.821	-20.00185	-2.006781E-007	-0.0090074	9
	48	13	15.625	2682.873	-864.6342	1	2818.759	-17.86305	-1.667329E-007	-0.0090075	9
	49	13	12.46675	2802.407	-810.7202	1	2917.319	-16.13485	-1.559473E-007	-0.0090021	9
	50	14	9.9734	2908.515	-759.5161	1	3006.048	-14.63513	-1.510821E-007	-0.0090022	9
	51	14	7.971939	3002.126	-711.6618	1	3085.324	-13.33595	-2.449239E-007	-0.0090022	8
	52	15	6.351626	3089.577	-668.5618	1	3161.085	-12.21013	-2.429357E-007	-0.0090031	8
	53	16	5.013369	3172.728	-630.0989	1	3234.691	-11.2327	-2.350446E-007	-0.0090041	8
	54	17	3.985969	3246.999	-599.2411	1	3301.832	-10.45641	-2.374076E-007	-0.0090029	8
	55	18	3.175813	3315.49	-574.9116	1	3364.966	-9.83737	-2.335271E-007	-0.0090045	8
	56	19	2.516103	3382.162	-554.6815	1	3427.345	-9.313713	-2.406404E-007	-0.0090032	8
	57	21	1.99553	3445.452	-542.7042	1	3487.932	-8.951297	-2.496955E-007	-0.0090016	8
	58	23	1.587906	3506.149	-536.4813	1	3546.955	-8.699443	-2.475482E-007	-0.0090022	8
	59	26	1.258052	3566.812	-535.5413	1	3606.792	-8.538927	-2.552724E-007	-0.0090002	8
	60	29	0.997765	3628.357	-539.851	1	3668.299	-8.462762	-2.949235E-007	-0.0090011	8
