EXPLAIN
TAG	EISPOT
TITLE	LABEL	Potentiostatic EIS	Test &Identifier
DATE	LABEL	22.9.2016	Date
TIME	LABEL	10:10:33	Time
NOTES	NOTES	1	&Notes...
	
PSTAT	PSTAT	IFC1000-05175	Potentiostat
VDC	POTEN	0.00000E+000	T	DC &Voltage (V)
FREQINIT	QUANT	1.00000E+006	Initial Fre&q. (Hz)
FREQFINAL	QUANT	1.00000E-001	Final Fre&q. (Hz)
PTSPERDEC	QUANT	1.00000E+001	Points/&decade
VAC	QUANT	1.00000E+002	AC &Voltage (mV rms)
AREA	QUANT	1.00000E+000	&Area (cm^2)
CONDIT	TWOPARAM	F	1.50000E+001	0.00000E+000	Conditionin&g	Time(s)	E(V)
DELAY	TWOPARAM	F	6.00000E+001	0.00000E+000	Init. De&lay	Time(s)	Stab.(mV/s)
SPEED	SELECTOR	1	&Optimize for:
ZGUESS	QUANT	1.00000E+002	E&stimated Z (ohms)
OCVCURVE	TABLE	40
	Pt	T	Vf	Vm	Ach	Over
	#	s	V vs. Ref.	V	V	bits
	0	0.25	4.06719E-002	4.06719E-002	0.00000E+000	...........
	1	0.5	4.06707E-002	4.06056E-002	0.00000E+000	...........
	2	0.75	4.06629E-002	4.05450E-002	0.00000E+000	...........
	3	1	4.06411E-002	4.04820E-002	0.00000E+000	...........
	4	1.25	4.06019E-002	4.04229E-002	0.00000E+000	...........
	5	1.5	4.05494E-002	4.03674E-002	0.00000E+000	...........
	6	1.75	4.04903E-002	4.02903E-002	0.00000E+000	...........
	7	2	4.04282E-002	4.02166E-002	0.00000E+000	...........
	8	2.25	4.03633E-002	4.01528E-002	0.00000E+000	...........
	9	2.5	4.02956E-002	4.00862E-002	0.00000E+000	...........
	10	2.75	4.02269E-002	4.00219E-002	0.00000E+000	...........
	11	3	4.01588E-002	3.99489E-002	0.00000E+000	...........
	12	3.25	4.00913E-002	3.98810E-002	0.00000E+000	...........
	13	3.5	4.00236E-002	3.98122E-002	0.00000E+000	...........
	14	3.75	3.99554E-002	3.97486E-002	0.00000E+000	...........
	15	4	3.98874E-002	3.96941E-002	0.00000E+000	...........
	16	4.25	3.98214E-002	3.96413E-002	0.00000E+000	...........
	17	4.5	3.97589E-002	3.95823E-002	0.00000E+000	...........
	18	4.75	3.97000E-002	3.95276E-002	0.00000E+000	...........
	19	5	3.96431E-002	3.94645E-002	0.00000E+000	...........
	20	5.25	3.95867E-002	3.94180E-002	0.00000E+000	...........
	21	5.5	3.95302E-002	3.93519E-002	0.00000E+000	...........
	22	5.75	3.94733E-002	3.92857E-002	0.00000E+000	...........
	23	6	3.94151E-002	3.92230E-002	0.00000E+000	...........
	24	6.25	3.93541E-002	3.91376E-002	0.00000E+000	...........
	25	6.5	3.92895E-002	3.90820E-002	0.00000E+000	...........
	26	6.75	3.92221E-002	3.90326E-002	0.00000E+000	...........
	27	7	3.91557E-002	3.89801E-002	0.00000E+000	...........
	28	7.25	3.90937E-002	3.89263E-002	0.00000E+000	...........
	29	7.5	3.90367E-002	3.88698E-002	0.00000E+000	...........
	30	7.75	3.89820E-002	3.87945E-002	0.00000E+000	...........
	31	8	3.89260E-002	3.87329E-002	0.00000E+000	...........
	32	8.25	3.88667E-002	3.86876E-002	0.00000E+000	...........
	33	8.5	3.88055E-002	3.86270E-002	0.00000E+000	...........
	34	8.75	3.87453E-002	3.85497E-002	0.00000E+000	...........
	35	9	3.86850E-002	3.84692E-002	0.00000E+000	...........
	36	9.25	3.86215E-002	3.84181E-002	0.00000E+000	...........
	37	9.5	3.85544E-002	3.83508E-002	0.00000E+000	...........
	38	9.75	3.84863E-002	3.82733E-002	0.00000E+000	...........
	39	10	3.84188E-002	3.82078E-002	0.00000E+000	...........
EOC	QUANT	0.0384188	Open Circuit (V)
PSTATMODEL	IQUANT	48	Pstat Model
PSTATSECTION	LABEL	IFC1000-05175	Pstat Section
PSTATSERIALNO	LABEL	05175	Pstat Serial Number
CTRLMODE	IQUANT	1	Control Mode
IESTAB	IQUANT	0	I/E Stability
CASPEED	IQUANT	1	Control Amp Speed
CONVENTION	IQUANT	1	Current Convention
ICHRANGE	IQUANT	2	Ich Range
ICHRANGEMODE	TOGGLE	F	Ich Auto Range
ICHOFFSETENABLE	TOGGLE	T	Ich Offset Enable
ICHOFFSET	QUANT	0	Ich Offset (V)
ICHFILTER	IQUANT	4	Ich Filter
VCHRANGE	IQUANT	2	Vch Range
VCHRANGEMODE	TOGGLE	F	Vch Auto Range
VCHOFFSETENABLE	TOGGLE	T	Vch Offset Enable
VCHOFFSET	QUANT	0	Vch Offset (V)
VCHFILTER	IQUANT	4	Vch Filter
IERANGELOWERLIMIT	IQUANT	4	I/E Range Lower Limit
IERANGEMODE	TOGGLE	F	I/E AutoRange
IERANGE	IQUANT	9	I/E Range
ACHSELECT	IQUANT	4	Ach Select
CABLEID	IQUANT	14	Cable ID
DCCALDATE	LABEL	27.2.2015	DC Calibration Date
ACCALDATE	LABEL	27.2.2015	AC Calibration Date
FRAMEWORKVERSION	QUANT	6.2	Framework Version
INSTRUMENTVERSION	LABEL	3.20	Instrument Version
ZCURVE	TABLE
	Pt	Time	Freq	Zreal	Zimag	Zsig	Zmod	Zphz	Idc	Vdc	IERange
	#	s	Hz	ohm	ohm	V	ohm	°	A	V	#
	0	1	1000020	1548.945	-204.9857	1	1562.45	-7.538659	1.70869E-006	0.0388854	9
	1	3	794355.5	1561.755	-171.2543	1	1571.116	-6.257769	2.113114E-006	0.0391176	10
	2	4	630996.1	1569.506	-138.776	1	1575.63	-5.052963	2.1223E-006	0.0389371	10
	3	6	501269.5	1573.252	-113.3377	1	1577.329	-4.120492	2.15788E-006	0.0388491	10
	4	7	398144.5	1577.588	-87.17857	1	1579.995	-3.162986	1.908962E-006	0.0386686	9
	5	9	316230.5	1580.554	-75.15154	1	1582.34	-2.722226	2.05941E-006	0.0387654	10
	6	10	251191.4	1581.44	-57.74275	1	1582.494	-2.091098	1.942193E-006	0.0386198	9
	7	11	199628.9	1582.496	-47.44917	1	1583.207	-1.717428	1.956549E-006	0.0386096	9
	8	13	158496.1	1583.131	-39.68109	1	1583.628	-1.435815	1.970005E-006	0.0385705	9
	9	14	125918	1584.084	-33.96964	1	1584.448	-1.228482	1.977502E-006	0.0385639	9
	10	15	100019.5	1585.023	-29.73919	1	1585.302	-1.074893	1.363566E-007	0.0384482	9
	11	17	79511.72	1586.363	-26.36015	1	1586.582	-0.95198	1.433412E-007	0.0384486	9
	12	18	63105.47	1586.713	-25.23538	1	1586.913	-0.9111662	1.526405E-007	0.038444	9
	13	19	50214.84	1587.932	-24.41317	1	1588.119	-0.8808072	1.829123E-007	0.0384437	9
	14	21	39902.34	1589.367	-24.44577	1	1589.555	-0.8811866	1.93381E-007	0.038444	9
	15	22	31699.22	1591.179	-25.19559	1	1591.379	-0.9071764	2.144567E-007	0.0384436	9
	16	24	25136.72	1593.267	-26.52275	1	1593.488	-0.953702	2.307923E-007	0.0384433	9
	17	25	19980.47	1595.713	-28.31986	1	1595.964	-1.016748	2.354169E-007	0.0384463	9
	18	26	15878.91	1598.457	-30.90188	1	1598.756	-1.107522	2.542899E-007	0.0384415	9
	19	27	12597.66	1601.701	-33.7793	1	1602.057	-1.208169	2.623796E-007	0.0384407	9
	20	29	10019.53	1605.223	-37.35041	1	1605.657	-1.332921	2.790978E-007	0.0384426	9
	21	30	7928.241	1609.37	-41.73683	1	1609.911	-1.485556	2.19491E-007	0.0384614	9
	22	31	6307.871	1614.021	-46.47217	1	1614.69	-1.649249	2.448472E-007	0.0384616	9
	23	33	5034.722	1619.124	-52.00544	1	1619.959	-1.839679	4.052319E-007	0.0384726	9
	24	34	3993.056	1625.013	-58.46789	1	1626.064	-2.060611	4.147386E-007	0.0384734	9
	25	35	3144.055	1631.886	-66.09043	1	1633.224	-2.319178	4.458078E-007	0.038473	9
	26	37	2519.531	1638.967	-74.15099	1	1640.643	-2.590439	4.523079E-007	0.0384727	9
	27	38	2000.762	1647.264	-83.76199	1	1649.392	-2.910936	4.724379E-007	0.038474	9
	28	39	1580.669	1656.873	-95.0391	1	1659.596	-3.28292	4.879661E-007	0.0384732	9
	29	41	1253.634	1667.552	-107.7487	1	1671.029	-3.697023	4.912515E-007	0.0384748	9
	30	42	1000.702	1679.37	-121.8852	1	1683.787	-4.151132	4.819095E-007	0.0384802	9
	31	43	790.0281	1693.44	-138.8751	1	1699.124	-4.688206	5.157755E-007	0.0384765	9
	32	44	628.811	1708.99	-157.6426	1	1716.245	-5.270228	5.321629E-007	0.0384752	9
	33	46	502.2321	1726.367	-178.6209	1	1735.583	-5.907166	5.290119E-007	0.0384804	9
	34	47	400.1524	1746.376	-202.8034	1	1758.113	-6.623979	5.368391E-007	0.038477	9
	35	48	315.5048	1770.456	-231.661	1	1785.548	-7.454698	5.418971E-007	0.038482	9
	36	49	252.0161	1796.6	-262.5761	1	1815.687	-8.315002	5.433666E-007	0.03848	9
	37	51	200.3205	1827.052	-298.3424	1	1851.25	-9.274073	5.571035E-007	0.0384776	9
	38	52	158.0056	1863.297	-340.1674	1	1894.094	-10.3461	5.593193E-007	0.0384823	9
	39	53	125.558	1903.579	-385.8639	1	1942.294	-11.45885	5.662497E-007	0.0384782	9
	40	55	99.734	1950	-437.2276	1	1998.416	-12.6378	5.760467E-007	0.0384769	9
	41	56	79.44915	2005.835	-494.6576	1	2065.928	-13.85326	-3.42708E-008	0.0384613	9
	42	57	63.34459	2065.587	-557.6032	1	2139.526	-15.10686	2.36168E-008	0.03846	9
	43	58	49.86702	2137.581	-631.7468	1	2228.981	-16.46467	7.989549E-008	0.0384577	9
	44	60	38.42213	2228.105	-721.6042	1	2342.042	-17.9453	1.313649E-007	0.0384538	9
	45	61	31.25	2309.748	-800.2029	1	2444.435	-19.10844	1.902375E-007	0.0384531	9
	46	62	24.93351	2411.335	-894.405	1	2571.867	-20.35067	1.561624E-007	0.0384617	9
	47	64	20.03205	2521.235	-993.673	1	2709.983	-21.51046	1.794597E-007	0.0384557	9
	48	65	15.625	2661.87	-1116.367	1	2886.49	-22.75278	2.560288E-007	0.0384524	9
	49	67	12.46675	2805.647	-1237.577	1	3066.472	-23.80239	2.885799E-007	0.0384567	9
	50	69	9.9734	2961.924	-1366.342	1	3261.883	-24.76398	2.832825E-007	0.0384557	8
	51	70	7.971939	3138.492	-1506.812	1	3481.468	-25.64599	3.227238E-007	0.038458	8
	52	72	6.351626	3337.186	-1660.735	1	3727.58	-26.45702	3.563104E-007	0.0384552	8
	53	74	5.013369	3566.916	-1833.574	1	4010.597	-27.20544	3.984719E-007	0.0384524	8
	54	76	3.985969	3813.93	-2014.235	1	4313.143	-27.83969	4.301826E-007	0.038455	8
	55	79	3.175813	4085.22	-2207.13	1	4643.323	-28.38111	4.555693E-007	0.0384532	8
	56	81	2.516103	4396.457	-2414.097	1	5015.645	-28.77122	4.733146E-007	0.0384579	8
	57	84	1.99553	4734.405	-2637.442	1	5419.473	-29.1213	5.008457E-007	0.0384581	8
	58	88	1.587906	5105.224	-2873.117	1	5858.166	-29.36993	5.380595E-007	0.0384565	8
	59	92	1.258052	5522.887	-3123.672	1	6345.045	-29.49193	5.621858E-007	0.0384569	8
	60	98	0.997765	5984.077	-3384.081	1	6874.677	-29.48878	5.731519E-007	0.0384585	8
	61	103	0.7927448	6483.726	-3647.045	1	7439.062	-29.35741	6.014299E-007	0.0384578	8
	62	109	0.6290258	7032.47	-3914.361	1	8048.469	-29.10086	6.307447E-007	0.0384564	8
	63	116	0.4988825	7630.199	-4180.065	1	8700.165	-28.71533	6.557654E-007	0.0384573	8
	64	126	0.3985969	8248.724	-4427.618	1	9361.904	-28.2253	6.820678E-007	0.0384548	8
	65	137	0.316723	8922.39	-4668.608	1	10070	-27.62065	7.035453E-007	0.0384542	8
	66	151	0.2514753	9634.77	-4880.49	1	10800.37	-26.86448	7.304977E-007	0.0384544	8
	67	168	0.1999787	10370.38	-5059.237	1	11538.66	-26.00565	7.605916E-007	0.0384526	8
	68	189	0.1587906	11127.48	-5205.04	1	12284.68	-25.06852	8.133897E-007	0.0384529	8
	69	214	0.1260081	11893.05	-5317.811	1	13027.81	-24.09114	8.297043E-007	0.0384515	8
	70	245	0.1001603	12668.96	-5403.183	1	13773.05	-23.09776	8.338876E-007	0.0384508	8
