EXPLAIN
TAG	EISPOT
TITLE	LABEL	Potentiostatic EIS	Test &Identifier
DATE	LABEL	7/8/2016	Date
TIME	LABEL	13:56:32	Time
NOTES	NOTES	1	&Notes...
	
PSTAT	PSTAT	IFC1000-05175	Potentiostat
VDC	POTEN	0.00000E+000	T	DC &Voltage (V)
FREQINIT	QUANT	1.00000E+006	Initial Fre&q. (Hz)
FREQFINAL	QUANT	1.00000E+000	Final Fre&q. (Hz)
PTSPERDEC	QUANT	1.00000E+001	Points/&decade
VAC	QUANT	1.00000E+002	AC &Voltage (mV rms)
AREA	QUANT	0.00000E+000	&Area (cm^2)
CONDIT	TWOPARAM	F	1.50000E+001	0.00000E+000	Conditionin&g	Time(s)	E(V)
DELAY	TWOPARAM	F	6.00000E+001	0.00000E+000	Init. De&lay	Time(s)	Stab.(mV/s)
SPEED	SELECTOR	0	&Optimize for:
ZGUESS	QUANT	1.00000E+002	E&stimated Z (ohms)
OCVCURVE	TABLE	40
	Pt	T	Vf	Vm	Ach	Over
	#	s	V vs. Ref.	V	V	bits
	0	0.25	2.13205E-002	2.13205E-002	0.00000E+000	...........
	1	0.5	2.13205E-002	2.13208E-002	0.00000E+000	...........
	2	0.75	2.13205E-002	2.13214E-002	0.00000E+000	...........
	3	1	2.13206E-002	2.13202E-002	0.00000E+000	...........
	4	1.25	2.13207E-002	2.13201E-002	0.00000E+000	...........
	5	1.5	2.13207E-002	2.13222E-002	0.00000E+000	...........
	6	1.75	2.13208E-002	2.13223E-002	0.00000E+000	...........
	7	2	2.13210E-002	2.13229E-002	0.00000E+000	...........
	8	2.25	2.13216E-002	2.13248E-002	0.00000E+000	...........
	9	2.5	2.13224E-002	2.13267E-002	0.00000E+000	...........
	10	2.75	2.13234E-002	2.13274E-002	0.00000E+000	...........
	11	3	2.13247E-002	2.13300E-002	0.00000E+000	...........
	12	3.25	2.13263E-002	2.13319E-002	0.00000E+000	...........
	13	3.5	2.13280E-002	2.13349E-002	0.00000E+000	...........
	14	3.75	2.13299E-002	2.13383E-002	0.00000E+000	...........
	15	4	2.13322E-002	2.13411E-002	0.00000E+000	...........
	16	4.25	2.13349E-002	2.13443E-002	0.00000E+000	...........
	17	4.5	2.13379E-002	2.13471E-002	0.00000E+000	...........
	18	4.75	2.13409E-002	2.13522E-002	0.00000E+000	...........
	19	5	2.13442E-002	2.13555E-002	0.00000E+000	...........
	20	5.25	2.13477E-002	2.13609E-002	0.00000E+000	...........
	21	5.5	2.13517E-002	2.13667E-002	0.00000E+000	...........
	22	5.75	2.13560E-002	2.13721E-002	0.00000E+000	...........
	23	6	2.13609E-002	2.13782E-002	0.00000E+000	...........
	24	6.25	2.13662E-002	2.13840E-002	0.00000E+000	...........
	25	6.5	2.13719E-002	2.13909E-002	0.00000E+000	...........
	26	6.75	2.13778E-002	2.13985E-002	0.00000E+000	...........
	27	7	2.13841E-002	2.14052E-002	0.00000E+000	...........
	28	7.25	2.13907E-002	2.14119E-002	0.00000E+000	...........
	29	7.5	2.13977E-002	2.14214E-002	0.00000E+000	...........
	30	7.75	2.14049E-002	2.14302E-002	0.00000E+000	...........
	31	8	2.14126E-002	2.14386E-002	0.00000E+000	...........
	32	8.25	2.14208E-002	2.14482E-002	0.00000E+000	...........
	33	8.5	2.14294E-002	2.14570E-002	0.00000E+000	...........
	34	8.75	2.14383E-002	2.14676E-002	0.00000E+000	...........
	35	9	2.14475E-002	2.14769E-002	0.00000E+000	...........
	36	9.25	2.14569E-002	2.14874E-002	0.00000E+000	...........
	37	9.5	2.14666E-002	2.14976E-002	0.00000E+000	...........
	38	9.75	2.14765E-002	2.15077E-002	0.00000E+000	...........
	39	10	2.14866E-002	2.15184E-002	0.00000E+000	...........
EOC	QUANT	0.0214866	Open Circuit (V)
PSTATMODEL	IQUANT	48	Pstat Model
PSTATSECTION	LABEL	IFC1000-05175	Pstat Section
PSTATSERIALNO	LABEL	05175	Pstat Serial Number
CTRLMODE	IQUANT	1	Control Mode
IESTAB	IQUANT	0	I/E Stability
CASPEED	IQUANT	1	Control Amp Speed
CONVENTION	IQUANT	1	Current Convention
ICHRANGE	IQUANT	2	Ich Range
ICHRANGEMODE	TOGGLE	F	Ich Auto Range
ICHOFFSETENABLE	TOGGLE	T	Ich Offset Enable
ICHOFFSET	QUANT	0	Ich Offset (V)
ICHFILTER	IQUANT	4	Ich Filter
VCHRANGE	IQUANT	2	Vch Range
VCHRANGEMODE	TOGGLE	F	Vch Auto Range
VCHOFFSETENABLE	TOGGLE	T	Vch Offset Enable
VCHOFFSET	QUANT	0	Vch Offset (V)
VCHFILTER	IQUANT	4	Vch Filter
IERANGELOWERLIMIT	IQUANT	4	I/E Range Lower Limit
IERANGEMODE	TOGGLE	F	I/E AutoRange
IERANGE	IQUANT	9	I/E Range
ACHSELECT	IQUANT	4	Ach Select
CABLEID	IQUANT	14	Cable ID
DCCALDATE	LABEL	27.2.2015	DC Calibration Date
ACCALDATE	LABEL	27.2.2015	AC Calibration Date
FRAMEWORKVERSION	QUANT	6.2	Framework Version
INSTRUMENTVERSION	LABEL	3.20	Instrument Version
ZCURVE	TABLE
	Pt	Time	Freq	Zreal	Zimag	Zsig	Zmod	Zphz	Idc	Vdc	IERange
	#	s	Hz	ohm	ohm	V	ohm	°	A	V	#
	0	1	1000020	205.8319	2.058911	1	205.8422	0.5731034	6.142924E-007	0.0220445	10
	1	1	794355.5	205.7257	1.133216	1	205.7289	0.3156039	4.66932E-007	0.0220935	10
	2	1	630996.1	205.7245	0.3685987	1	205.7248	0.1026573	5.057544E-007	0.0219381	10
	3	2	501269.5	205.8305	-0.2989451	1	205.8307	-0.0832155	4.389709E-007	0.0218502	10
	4	2	398144.5	205.9858	-0.9031183	1	205.9878	-0.2512043	3.577184E-007	0.0217916	10
	5	2	316230.5	206.1853	-1.438677	1	206.1904	-0.39978	3.375297E-007	0.0217553	10
	6	2	251191.4	206.4197	-1.981101	1	206.4292	-0.5498759	3.348249E-007	0.021726	10
	7	3	199628.9	206.5631	-2.535007	1	206.5787	-0.7031165	2.811664E-007	0.0217158	10
	8	3	158496.1	206.758	-3.163969	1	206.7822	-0.8767154	2.665187E-007	0.0216717	10
	9	3	125918	206.9148	-3.858179	1	206.9507	-1.068226	3.084926E-007	0.0216638	10
	10	3	100019.5	207.0978	-4.747587	1	207.1522	-1.31324	-1.081776E-006	0.0214458	10
	11	4	79511.72	207.5411	-5.445108	1	207.6125	-1.502884	-1.148212E-006	0.0214463	10
	12	4	63105.47	207.3532	-7.288918	1	207.4813	-2.013243	-1.133021E-006	0.0214447	10
	13	4	50214.84	207.6476	-9.013556	1	207.8431	-2.485533	-1.165218E-006	0.0214411	10
	14	4	39902.34	208.0592	-11.12413	1	208.3563	-3.060471	-1.147683E-006	0.0214405	10
	15	5	31699.22	208.5938	-13.70527	1	209.0436	-3.759111	-1.141781E-006	0.0214379	10
	16	5	25136.72	209.2964	-16.84302	1	209.973	-4.600933	-1.127015E-006	0.0214389	10
	17	5	19980.47	210.1624	-20.59371	1	211.169	-5.596518	-1.14547E-006	0.0214404	10
	18	5	15878.91	211.2537	-25.13769	1	212.7441	-6.785883	-1.148643E-006	0.0214355	10
	19	6	12597.66	212.6425	-30.71622	1	214.8496	-8.219522	-1.081493E-006	0.0214387	10
	20	6	10019.53	214.353	-37.39192	1	217.5899	-9.89516	-1.022321E-006	0.0214367	10
	21	6	7928.241	216.5705	-45.67989	1	221.3356	-11.91047	-1.092894E-006	0.0214529	10
	22	6	6307.871	219.3131	-55.45379	1	226.2153	-14.18994	-1.076577E-006	0.0214531	10
	23	6	5034.722	222.7013	-67.03353	1	232.5712	-16.7519	-8.621041E-007	0.0214747	10
	24	7	3993.056	227.0727	-81.32397	1	241.1962	-19.70452	-8.049954E-007	0.0214745	10
	25	7	3144.055	232.7359	-99.0876	1	252.9513	-23.06194	-8.228131E-007	0.0214736	10
	26	7	2519.531	239.2582	-118.8099	1	267.1335	-26.4079	-8.507192E-007	0.021472	10
	27	7	2000.762	247.6897	-143.3478	1	286.1796	-30.05966	-7.795467E-007	0.0214722	10
	28	8	1580.669	258.4839	-173.468	1	311.2959	-33.86548	-8.222934E-007	0.0214737	10
	29	8	1253.634	271.5379	-208.6934	1	342.4701	-37.54447	1.471181E-008	0.021473	9
	30	8	1000.702	288.0121	-249.8828	1	381.3036	-40.9453	2.398337E-008	0.0214728	9
	31	8	790.0281	310.1245	-301.3575	1	432.4275	-44.17859	2.931755E-008	0.0214737	9
	32	9	628.811	337.6982	-360.2796	1	493.803	-46.85303	2.810397E-008	0.0214722	9
	33	9	502.2321	372.7944	-428.2618	1	567.7885	-48.961	4.071685E-008	0.0214775	9
	34	9	400.1524	418.6555	-507.5699	1	657.951	-50.48339	1.15037E-008	0.0214745	9
	35	9	315.5048	481.2845	-602.9479	1	771.4797	-51.40247	2.480756E-008	0.0214751	9
	36	9	252.0161	557.8568	-703.8587	1	898.121	-51.60074	1.245848E-008	0.0214733	9
	37	10	200.3205	657.49	-815.969	1	1047.902	-51.13889	-5.531312E-009	0.0214722	9
	38	10	158.0056	787.1106	-937.7651	1	1224.315	-49.99168	1.371193E-008	0.021479	9
	39	10	125.558	941.1554	-1055.976	1	1414.517	-48.29047	-8.392738E-009	0.0214694	9
	40	10	99.734	1124.037	-1168.103	1	1621.087	-46.10136	-4.838455E-009	0.0214755	9
	41	11	79.44915	1330.529	-1266.965	1	1837.256	-43.59819	-2.606262E-007	0.0214522	9
	42	11	63.34459	1557.172	-1346.172	1	2058.389	-40.84334	-2.463759E-007	0.0214518	9
	43	11	49.86702	1811.521	-1404.817	1	2292.405	-37.79322	-2.376087E-007	0.021453	9
	44	11	38.42213	2098.438	-1438.733	1	2544.286	-34.43536	-2.533329E-007	0.0214488	9
	45	12	31.25	2328.673	-1443.32	1	2739.688	-31.7908	-2.298536E-007	0.0214488	9
	46	12	24.93351	2565.201	-1437.626	1	2940.583	-29.26776	-2.489358E-007	0.0214499	9
	47	12	20.03205	2791.511	-1413.09	1	3128.795	-26.84899	-2.672239E-007	0.021455	9
	48	13	15.625	3032.085	-1373.051	1	3328.485	-24.36294	-3.19059E-007	0.0214544	8
	49	13	12.46675	3240.172	-1328.136	1	3501.808	-22.28857	-3.169198E-007	0.0214539	8
	50	13	9.9734	3432.315	-1278.672	1	3662.757	-20.43233	-2.997981E-007	0.0214537	8
	51	14	7.971939	3612.183	-1226.59	1	3814.76	-18.75595	-2.911508E-007	0.0214542	8
	52	15	6.351626	3782.046	-1174.005	1	3960.07	-17.24514	-3.062994E-007	0.0214514	8
	53	15	5.013369	3945.396	-1121.569	1	4101.715	-15.86902	-2.9381E-007	0.0214531	8
	54	16	3.985969	4092.208	-1074.792	1	4230.999	-14.716	-2.91142E-007	0.021454	8
	55	18	3.175813	4227.596	-1033.479	1	4352.085	-13.73712	-3.087294E-007	0.0214527	8
	56	19	2.516103	4357.643	-994.989	1	4469.793	-12.86196	-3.170537E-007	0.0214549	8
	57	21	1.99553	4478.41	-966.786	1	4581.575	-12.1819	-3.324536E-007	0.021455	8
	58	23	1.587906	4591.791	-945.6703	1	4688.159	-11.63724	-3.329743E-007	0.021453	8
	59	25	1.258052	4702.633	-930.8617	1	4793.878	-11.19666	-3.538597E-007	0.0214555	8
	60	29	0.997765	4811.867	-923.4054	1	4899.667	-10.86309	-3.968477E-007	0.0214557	8
