EXPLAIN
TAG	EISPOT
TITLE	LABEL	Potentiostatic EIS	Test &Identifier
DATE	LABEL	21.9.2016	Date
TIME	LABEL	10:55:03	Time
NOTES	NOTES	1	&Notes...
	
PSTAT	PSTAT	IFC1000-05175	Potentiostat
VDC	POTEN	0.00000E+000	T	DC &Voltage (V)
FREQINIT	QUANT	1.00000E+006	Initial Fre&q. (Hz)
FREQFINAL	QUANT	1.00000E-001	Final Fre&q. (Hz)
PTSPERDEC	QUANT	1.00000E+001	Points/&decade
VAC	QUANT	1.00000E+002	AC &Voltage (mV rms)
AREA	QUANT	1.00000E+000	&Area (cm^2)
CONDIT	TWOPARAM	F	1.50000E+001	0.00000E+000	Conditionin&g	Time(s)	E(V)
DELAY	TWOPARAM	F	6.00000E+001	0.00000E+000	Init. De&lay	Time(s)	Stab.(mV/s)
SPEED	SELECTOR	1	&Optimize for:
ZGUESS	QUANT	1.00000E+002	E&stimated Z (ohms)
OCVCURVE	TABLE	40
	Pt	T	Vf	Vm	Ach	Over
	#	s	V vs. Ref.	V	V	bits
	0	0.25	-1.73577E-002	-1.73577E-002	0.00000E+000	...........
	1	0.5	-1.73580E-002	-1.73759E-002	0.00000E+000	...........
	2	0.75	-1.73602E-002	-1.73931E-002	0.00000E+000	...........
	3	1	-1.73661E-002	-1.74058E-002	0.00000E+000	...........
	4	1.25	-1.73765E-002	-1.74192E-002	0.00000E+000	...........
	5	1.5	-1.73897E-002	-1.74282E-002	0.00000E+000	...........
	6	1.75	-1.74032E-002	-1.74347E-002	0.00000E+000	...........
	7	2	-1.74154E-002	-1.74410E-002	0.00000E+000	...........
	8	2.25	-1.74255E-002	-1.74457E-002	0.00000E+000	...........
	9	2.5	-1.74334E-002	-1.74493E-002	0.00000E+000	...........
	10	2.75	-1.74397E-002	-1.74529E-002	0.00000E+000	...........
	11	3	-1.74447E-002	-1.74565E-002	0.00000E+000	...........
	12	3.25	-1.74490E-002	-1.74624E-002	0.00000E+000	...........
	13	3.5	-1.74530E-002	-1.74678E-002	0.00000E+000	...........
	14	3.75	-1.74573E-002	-1.74736E-002	0.00000E+000	...........
	15	4	-1.74622E-002	-1.74804E-002	0.00000E+000	...........
	16	4.25	-1.74676E-002	-1.74865E-002	0.00000E+000	...........
	17	4.5	-1.74735E-002	-1.74905E-002	0.00000E+000	...........
	18	4.75	-1.74794E-002	-1.74932E-002	0.00000E+000	...........
	19	5	-1.74847E-002	-1.74947E-002	0.00000E+000	...........
	20	5.25	-1.74890E-002	-1.74958E-002	0.00000E+000	...........
	21	5.5	-1.74921E-002	-1.74956E-002	0.00000E+000	...........
	22	5.75	-1.74940E-002	-1.74945E-002	0.00000E+000	...........
	23	6	-1.74949E-002	-1.74914E-002	0.00000E+000	...........
	24	6.25	-1.74948E-002	-1.74888E-002	0.00000E+000	...........
	25	6.5	-1.74936E-002	-1.74843E-002	0.00000E+000	...........
	26	6.75	-1.74913E-002	-1.74798E-002	0.00000E+000	...........
	27	7	-1.74882E-002	-1.74738E-002	0.00000E+000	...........
	28	7.25	-1.74842E-002	-1.74669E-002	0.00000E+000	...........
	29	7.5	-1.74793E-002	-1.74587E-002	0.00000E+000	...........
	30	7.75	-1.74735E-002	-1.74490E-002	0.00000E+000	...........
	31	8	-1.74665E-002	-1.74410E-002	0.00000E+000	...........
	32	8.25	-1.74586E-002	-1.74287E-002	0.00000E+000	...........
	33	8.5	-1.74498E-002	-1.74163E-002	0.00000E+000	...........
	34	8.75	-1.74399E-002	-1.74040E-002	0.00000E+000	...........
	35	9	-1.74290E-002	-1.73926E-002	0.00000E+000	...........
	36	9.25	-1.74174E-002	-1.73803E-002	0.00000E+000	...........
	37	9.5	-1.74054E-002	-1.73685E-002	0.00000E+000	...........
	38	9.75	-1.73934E-002	-1.73571E-002	0.00000E+000	...........
	39	10	-1.73814E-002	-1.73449E-002	0.00000E+000	...........
EOC	QUANT	-0.0173814	Open Circuit (V)
PSTATMODEL	IQUANT	48	Pstat Model
PSTATSECTION	LABEL	IFC1000-05175	Pstat Section
PSTATSERIALNO	LABEL	05175	Pstat Serial Number
CTRLMODE	IQUANT	1	Control Mode
IESTAB	IQUANT	0	I/E Stability
CASPEED	IQUANT	1	Control Amp Speed
CONVENTION	IQUANT	1	Current Convention
ICHRANGE	IQUANT	2	Ich Range
ICHRANGEMODE	TOGGLE	F	Ich Auto Range
ICHOFFSETENABLE	TOGGLE	T	Ich Offset Enable
ICHOFFSET	QUANT	0	Ich Offset (V)
ICHFILTER	IQUANT	4	Ich Filter
VCHRANGE	IQUANT	2	Vch Range
VCHRANGEMODE	TOGGLE	F	Vch Auto Range
VCHOFFSETENABLE	TOGGLE	T	Vch Offset Enable
VCHOFFSET	QUANT	0	Vch Offset (V)
VCHFILTER	IQUANT	4	Vch Filter
IERANGELOWERLIMIT	IQUANT	4	I/E Range Lower Limit
IERANGEMODE	TOGGLE	F	I/E AutoRange
IERANGE	IQUANT	9	I/E Range
ACHSELECT	IQUANT	4	Ach Select
CABLEID	IQUANT	14	Cable ID
DCCALDATE	LABEL	27.2.2015	DC Calibration Date
ACCALDATE	LABEL	27.2.2015	AC Calibration Date
FRAMEWORKVERSION	QUANT	6.2	Framework Version
INSTRUMENTVERSION	LABEL	3.20	Instrument Version
ZCURVE	TABLE
	Pt	Time	Freq	Zreal	Zimag	Zsig	Zmod	Zphz	Idc	Vdc	IERange
	#	s	Hz	ohm	ohm	V	ohm	°	A	V	#
	0	1	1000020	66.14149	4.523557	1	66.29601	3.912487	3.656613E-006	-0.0168819	10
	1	2	794355.5	66.11161	3.411026	1	66.19955	2.953554	4.442549E-006	-0.0168098	10
	2	4	630996.1	66.12025	2.522908	1	66.16837	2.185138	4.206147E-006	-0.0170198	10
	3	5	501269.5	66.17451	1.778755	1	66.19842	1.539726	4.057592E-006	-0.0171289	10
	4	6	398144.5	66.25397	1.159189	1	66.26411	1.002353	3.995038E-006	-0.017187	10
	5	8	316230.5	66.36336	0.6301792	1	66.36635	0.5440581	3.913037E-006	-0.0172324	10
	6	9	251191.4	66.48985	0.1765393	1	66.49008	0.1521275	3.925579E-006	-0.0172687	10
	7	10	199628.9	66.61263	-0.2282182	1	66.61302	-0.1962974	3.906339E-006	-0.017282	10
	8	12	158496.1	66.75594	-0.6008456	1	66.75864	-0.5156842	3.914718E-006	-0.0173056	10
	9	13	125918	66.90661	-0.964574	1	66.91356	-0.8259603	3.901402E-006	-0.0173484	10
	10	14	100019.5	67.0822	-1.333503	1	67.09545	-1.138813	-1.252249E-007	-0.0175234	10
	11	16	79511.72	67.35613	-1.574016	1	67.37452	-1.338677	-2.289856E-007	-0.0175271	10
	12	17	63105.47	67.45907	-2.174715	1	67.49411	-1.846436	-2.803562E-007	-0.0175306	10
	13	18	50214.84	67.7288	-2.65564	1	67.78084	-2.245412	-3.399269E-007	-0.0175307	10
	14	20	39902.34	68.05464	-3.189497	1	68.12934	-2.683301	-2.959015E-007	-0.0175312	10
	15	21	31699.22	68.44021	-3.781979	1	68.54462	-3.162925	-3.64272E-007	-0.0175302	10
	16	22	25136.72	68.89875	-4.440666	1	69.04171	-3.68773	-4.027308E-007	-0.0175299	10
	17	24	19980.47	69.42209	-5.166528	1	69.61407	-4.256218	-3.098156E-007	-0.0175305	10
	18	25	15878.91	70.01887	-5.978745	1	70.27366	-4.880512	-4.114676E-007	-0.0175305	10
	19	26	12597.66	70.70462	-6.900399	1	71.04054	-5.574114	-4.302538E-007	-0.0175336	10
	20	27	10019.53	71.47095	-7.934104	1	71.91	-6.334559	-3.914036E-007	-0.0175339	10
	21	29	7928.241	72.35885	-9.140845	1	72.93393	-7.199841	-5.406559E-007	-0.0175173	10
	22	30	6307.871	73.34756	-10.49596	1	74.09473	-8.143682	-3.952153E-007	-0.0175177	10
	23	31	5034.722	74.4515	-12.0281	1	75.41685	-9.177189	1.016596E-007	-0.0175041	10
	24	33	3993.056	75.73872	-13.84595	1	76.99392	-10.35996	1.507855E-007	-0.0175031	10
	25	34	3144.055	77.26704	-16.02334	1	78.91098	-11.71572	9.060409E-008	-0.0175046	10
	26	35	2519.531	78.89439	-18.3549	1	81.0014	-13.09697	1.245859E-007	-0.0175043	10
	27	37	2000.762	80.8425	-21.15331	1	83.56418	-14.66331	1.326805E-007	-0.0175032	10
	28	38	1580.669	83.15307	-24.46028	1	86.67606	-16.39176	2.233321E-007	-0.0175044	10
	29	39	1253.634	85.80221	-28.21741	1	90.32298	-18.20426	3.265216E-007	-0.017505	10
	30	41	1000.702	88.80254	-32.40678	1	94.53089	-20.04858	3.491863E-007	-0.0175023	10
	31	42	790.0281	92.48401	-37.43025	1	99.7713	-22.03423	4.255883E-007	-0.0175026	10
	32	43	628.811	96.646	-42.95744	1	105.7629	-23.96431	5.084631E-007	-0.0175057	10
	33	44	502.2321	101.4205	-49.10276	1	112.6819	-25.83395	6.572194E-007	-0.0174997	10
	34	45	400.1524	106.9834	-56.02543	1	120.7655	-27.6403	6.423215E-007	-0.017505	10
	35	47	315.5048	113.8009	-64.24427	1	130.6827	-29.44612	8.508219E-007	-0.0175021	10
	36	48	252.0161	121.2386	-72.91369	1	141.4751	-31.02298	7.196242E-007	-0.0175034	10
	37	49	200.3205	129.9292	-82.76066	1	154.0484	-32.49581	8.44345E-007	-0.0175063	10
	38	50	158.0056	140.2863	-94.15848	1	168.9558	-33.86905	9.942876E-007	-0.0175017	10
	39	52	125.558	151.5779	-106.4031	1	185.1958	-35.0677	8.166772E-007	-0.017506	10
	40	53	99.734	164.3407	-120.0833	1	203.5383	-36.15551	8.357898E-007	-0.0175003	10
	41	54	79.44915	178.6475	-135.2782	1	224.0873	-37.1343	-1.71529E-006	-0.0175253	10
	42	55	63.34459	194.567	-152.2467	1	247.0534	-38.04282	-1.509752E-006	-0.0175209	10
	43	57	49.86702	213.3433	-172.1802	1	274.1558	-38.90551	-1.22278E-006	-0.0175258	10
	44	58	38.42213	236.6481	-196.848	1	307.8173	-39.75426	-1.103586E-006	-0.0175318	10
	45	59	31.25	257.257	-218.5066	1	337.5298	-40.3436	-1.528793E-006	-0.0175239	9
	46	61	24.93351	282.7821	-245.4805	1	374.4681	-40.96093	-1.675723E-006	-0.0175218	9
	47	62	20.03205	310.6668	-274.457	1	414.5365	-41.45882	-1.622513E-006	-0.0175255	9
	48	63	15.625	346.6366	-311.3836	1	465.9578	-41.93334	-1.512812E-006	-0.017529	9
	49	65	12.46675	383.7534	-348.9124	1	518.6584	-42.27742	-1.462612E-006	-0.0175252	9
	50	66	9.9734	425.1797	-390.1102	1	577.0301	-42.53695	-1.443995E-006	-0.0175256	9
	51	68	7.971939	472.1694	-435.9424	1	642.6428	-42.71553	-1.436709E-006	-0.0175237	9
	52	70	6.351626	526.0074	-487.3272	1	717.0577	-42.81401	-1.491814E-006	-0.0175288	9
	53	72	5.013369	590.0116	-546.5934	1	804.2873	-42.81237	-1.479796E-006	-0.0175279	9
	54	74	3.985969	660.6364	-609.8149	1	899.0632	-42.70923	-1.483728E-006	-0.0175261	9
	55	76	3.175813	740.249	-678.2153	1	1003.964	-42.49588	-1.554686E-006	-0.0175279	9
	56	79	2.516103	834.2068	-753.7559	1	1124.299	-42.09971	-1.6202E-006	-0.0175254	9
	57	82	1.99553	937.082	-831.7921	1	1252.997	-41.59356	-1.642676E-006	-0.0175238	9
	58	86	1.587906	1055.398	-919.0458	1	1399.468	-41.0495	-1.659842E-006	-0.0175263	9
	59	90	1.258052	1191.199	-1011.163	1	1562.5	-40.32663	-1.678515E-006	-0.0175238	9
	60	95	0.997765	1343.754	-1106.627	1	1740.775	-39.4726	-1.714463E-006	-0.0175242	9
	61	102	0.7927448	1510.748	-1201.976	1	1930.572	-38.50634	-1.752535E-006	-0.0175221	9
	62	109	0.6290258	1695.35	-1298.291	1	2135.362	-37.44473	-1.783102E-006	-0.0175234	9
	63	118	0.4988825	1896.317	-1393.749	1	2353.413	-36.31501	-1.807871E-006	-0.0175244	9
	64	129	0.3985969	2105.687	-1485.306	1	2576.83	-35.19831	-1.876414E-006	-0.0175264	9
	65	143	0.316723	2339.456	-1579.509	1	2822.748	-34.02567	-1.947807E-006	-0.0175268	9
	66	160	0.2514753	2591.065	-1672.53	1	3083.986	-32.8422	-1.961172E-006	-0.0175272	9
	67	181	0.1999787	2853.654	-1760.229	1	3352.871	-31.66767	-2.001491E-006	-0.0175266	8
	68	207	0.1587906	3141.431	-1849.095	1	3645.236	-30.48172	-2.015378E-006	-0.0175265	8
	69	239	0.1260081	3442.208	-1934.605	1	3948.607	-29.33706	-1.970612E-006	-0.0175264	8
	70	277	0.1001603	3755.63	-1993.241	1	4251.795	-27.95642	-2.329027E-006	-0.0175271	8
