EXPLAIN
TAG	EISPOT
TITLE	LABEL	Potentiostatic EIS	Test &Identifier
DATE	LABEL	22.9.2016	Date
TIME	LABEL	13:31:28	Time
NOTES	NOTES	1	&Notes...
	
PSTAT	PSTAT	IFC1000-05175	Potentiostat
VDC	POTEN	0.00000E+000	T	DC &Voltage (V)
FREQINIT	QUANT	1.00000E+006	Initial Fre&q. (Hz)
FREQFINAL	QUANT	1.00000E-001	Final Fre&q. (Hz)
PTSPERDEC	QUANT	1.00000E+001	Points/&decade
VAC	QUANT	1.00000E+002	AC &Voltage (mV rms)
AREA	QUANT	1.00000E+000	&Area (cm^2)
CONDIT	TWOPARAM	F	1.50000E+001	0.00000E+000	Conditionin&g	Time(s)	E(V)
DELAY	TWOPARAM	F	6.00000E+001	0.00000E+000	Init. De&lay	Time(s)	Stab.(mV/s)
SPEED	SELECTOR	1	&Optimize for:
ZGUESS	QUANT	1.00000E+002	E&stimated Z (ohms)
OCVCURVE	TABLE	40
	Pt	T	Vf	Vm	Ach	Over
	#	s	V vs. Ref.	V	V	bits
	0	0.25	1.61355E-003	1.61355E-003	0.00000E+000	...........
	1	0.5	1.60999E-003	1.42742E-003	0.00000E+000	...........
	2	0.75	1.58870E-003	1.27944E-003	0.00000E+000	...........
	3	1	1.53120E-003	1.18592E-003	0.00000E+000	...........
	4	1.25	1.43538E-003	1.07013E-003	0.00000E+000	...........
	5	1.5	1.31767E-003	9.19291E-004	0.00000E+000	...........
	6	1.75	1.19319E-003	8.02673E-004	0.00000E+000	...........
	7	2	1.06685E-003	6.84101E-004	0.00000E+000	...........
	8	2.25	9.40714E-004	5.86062E-004	0.00000E+000	...........
	9	2.5	8.17692E-004	4.38712E-004	0.00000E+000	...........
	10	2.75	6.98732E-004	3.74297E-004	0.00000E+000	...........
	11	3	5.84507E-004	2.90441E-004	0.00000E+000	...........
	12	3.25	4.77607E-004	1.61596E-004	0.00000E+000	...........
	13	3.5	3.76624E-004	2.71572E-005	0.00000E+000	...........
	14	3.75	2.73608E-004	-8.44411E-005	0.00000E+000	...........
	15	4	1.62562E-004	-2.08087E-004	0.00000E+000	...........
	16	4.25	4.41548E-005	-3.53331E-004	0.00000E+000	...........
	17	4.5	-8.05288E-005	-5.43756E-004	0.00000E+000	...........
	18	4.75	-2.17189E-004	-8.13198E-004	0.00000E+000	...........
	19	5	-3.78350E-004	-1.08743E-003	0.00000E+000	...........
	20	5.25	-5.74944E-004	-1.35141E-003	0.00000E+000	...........
	21	5.5	-8.03280E-004	-1.45028E-003	0.00000E+000	...........
	22	5.75	-1.03900E-003	-1.57659E-003	0.00000E+000	...........
	23	6	-1.25109E-003	-1.70749E-003	0.00000E+000	...........
	24	6.25	-1.42546E-003	-1.82520E-003	0.00000E+000	...........
	25	6.5	-1.56848E-003	-1.89634E-003	0.00000E+000	...........
	26	6.75	-1.69098E-003	-2.00789E-003	0.00000E+000	...........
	27	7	-1.79921E-003	-2.07018E-003	0.00000E+000	...........
	28	7.25	-1.89571E-003	-2.10786E-003	0.00000E+000	...........
	29	7.5	-1.97854E-003	-2.10894E-003	0.00000E+000	...........
	30	7.75	-2.04288E-003	-2.15236E-003	0.00000E+000	...........
	31	8	-2.08943E-003	-2.24246E-003	0.00000E+000	...........
	32	8.25	-2.12805E-003	-2.23807E-003	0.00000E+000	...........
	33	8.5	-2.16582E-003	-2.19737E-003	0.00000E+000	...........
	34	8.75	-2.19614E-003	-2.17524E-003	0.00000E+000	...........
	35	9	-2.20894E-003	-2.20019E-003	0.00000E+000	...........
	36	9.25	-2.20673E-003	-2.21695E-003	0.00000E+000	...........
	37	9.5	-2.20189E-003	-2.21375E-003	0.00000E+000	...........
	38	9.75	-2.20508E-003	-2.35799E-003	0.00000E+000	...........
	39	10	-2.22506E-003	-2.42454E-003	0.00000E+000	...........
EOC	QUANT	-0.0022251	Open Circuit (V)
PSTATMODEL	IQUANT	48	Pstat Model
PSTATSECTION	LABEL	IFC1000-05175	Pstat Section
PSTATSERIALNO	LABEL	05175	Pstat Serial Number
CTRLMODE	IQUANT	1	Control Mode
IESTAB	IQUANT	0	I/E Stability
CASPEED	IQUANT	1	Control Amp Speed
CONVENTION	IQUANT	1	Current Convention
ICHRANGE	IQUANT	2	Ich Range
ICHRANGEMODE	TOGGLE	F	Ich Auto Range
ICHOFFSETENABLE	TOGGLE	T	Ich Offset Enable
ICHOFFSET	QUANT	0	Ich Offset (V)
ICHFILTER	IQUANT	4	Ich Filter
VCHRANGE	IQUANT	2	Vch Range
VCHRANGEMODE	TOGGLE	F	Vch Auto Range
VCHOFFSETENABLE	TOGGLE	T	Vch Offset Enable
VCHOFFSET	QUANT	0	Vch Offset (V)
VCHFILTER	IQUANT	4	Vch Filter
IERANGELOWERLIMIT	IQUANT	4	I/E Range Lower Limit
IERANGEMODE	TOGGLE	F	I/E AutoRange
IERANGE	IQUANT	8	I/E Range
ACHSELECT	IQUANT	4	Ach Select
CABLEID	IQUANT	14	Cable ID
DCCALDATE	LABEL	27.2.2015	DC Calibration Date
ACCALDATE	LABEL	27.2.2015	AC Calibration Date
FRAMEWORKVERSION	QUANT	6.2	Framework Version
INSTRUMENTVERSION	LABEL	3.20	Instrument Version
ZCURVE	TABLE
	Pt	Time	Freq	Zreal	Zimag	Zsig	Zmod	Zphz	Idc	Vdc	IERange
	#	s	Hz	ohm	ohm	V	ohm	°	A	V	#
	0	2	1000020	6179.959	-8882.135	1	10820.55	-55.1708	1.951805E-006	-0.0018046	9
	1	3	794355.5	8336.201	-9439.806	1	12593.74	-48.55259	2.215529E-006	-0.0017625	9
	2	4	630996.1	10348.31	-9484.344	1	14037.11	-42.5056	1.970802E-006	-0.0018835	9
	3	5	501269.5	12681.08	-9059.858	1	15584.95	-35.5435	2.235871E-006	-0.0019796	9
	4	7	398144.5	14522.2	-8238.731	1	16696.44	-29.56709	2.15045E-006	-0.0020611	9
	5	8	316230.5	15891.52	-7292.62	1	17484.93	-24.65039	1.972326E-006	-0.0020579	9
	6	10	251191.4	17307.99	-5914.243	1	18290.56	-18.86561	1.277381E-006	-0.0028774	8
	7	11	199628.9	18016.74	-4885.794	1	18667.45	-15.17262	1.294919E-006	-0.0028712	8
	8	12	158496.1	18539.27	-3988.646	1	18963.49	-12.14186	1.30244E-006	-0.0029	8
	9	14	125918	18924.33	-3275.344	1	19205.68	-9.81924	1.303763E-006	-0.0029059	8
	10	15	100019.5	19158.37	-2648.561	1	19340.57	-7.871004	-1.204713E-007	-0.0022583	8
	11	16	79511.72	19341.18	-2139.247	1	19459.13	-6.311594	-1.292767E-007	-0.0022584	8
	12	18	63105.47	19482.37	-1718.295	1	19558	-5.040299	-1.395545E-007	-0.0022615	8
	13	19	50214.84	19571.68	-1381.945	1	19620.41	-4.038919	-1.445444E-007	-0.0022645	8
	14	20	39902.34	19653.38	-1130.027	1	19685.84	-3.290761	-1.454504E-007	-0.0022665	8
	15	22	31699.22	19728.41	-911.6872	1	19749.46	-2.645864	-1.390907E-007	-0.0022672	8
	16	23	25136.72	19800.94	-747.9989	1	19815.06	-2.163373	-1.345164E-007	-0.0022678	8
	17	24	19980.47	19861.27	-618.3224	1	19870.9	-1.78316	-1.361614E-007	-0.0022657	8
	18	26	15878.91	19997.64	-525.2005	1	20004.54	-1.50442	-1.133699E-007	-0.0022668	8
	19	27	12597.66	20186.27	-432.821	1	20190.91	-1.228311	-8.336738E-008	-0.0022688	8
	20	28	10019.53	20236.37	-385.94	1	20240.05	-1.09259	-7.43894E-008	-0.0022672	8
	21	30	7928.241	20286.6	-329.5973	1	20289.28	-0.9308053	-1.669394E-007	-0.0020518	8
	22	31	6307.871	20360.06	-303.4507	1	20362.32	-0.8538853	-1.525555E-007	-0.002057	8
	23	32	5034.722	20401.72	-276.5656	1	20403.6	-0.7766535	6.979162E-008	-0.0022602	8
	24	34	3993.056	20437.84	-260.2755	1	20439.5	-0.7296211	7.267693E-008	-0.0022599	8
	25	35	3144.055	20469.98	-250.1779	1	20471.51	-0.7002167	8.141143E-008	-0.0022669	8
	26	36	2519.531	20505.52	-245.8457	1	20506.99	-0.6869002	8.332866E-008	-0.0022668	8
	27	38	2000.762	20529.64	-245.1682	1	20531.11	-0.6842026	8.968633E-008	-0.0022665	8
	28	39	1580.669	20558.14	-249.9481	1	20559.66	-0.6965739	8.754454E-008	-0.002265	8
	29	40	1253.634	20585.08	-254.1711	1	20586.65	-0.7074149	8.525595E-008	-0.002265	8
	30	41	1000.702	20608.15	-262.9796	1	20609.83	-0.731109	8.382625E-008	-0.0022621	8
	31	43	790.0281	20634.51	-274.5231	1	20636.34	-0.7622223	8.591073E-008	-0.0022608	8
	32	44	628.811	20668.89	-289.2394	1	20670.92	-0.8017418	9.568089E-008	-0.0022665	8
	33	45	502.2321	20699.14	-306.2003	1	20701.41	-0.8475087	9.485949E-008	-0.0022615	8
	34	46	400.1524	20737.33	-326.3413	1	20739.9	-0.9015834	8.473132E-008	-0.0022602	8
	35	48	315.5048	20768.04	-351.9221	1	20771.02	-0.970805	9.728204E-008	-0.0022618	8
	36	49	252.0161	20810.07	-380.348	1	20813.55	-1.047085	8.164678E-008	-0.0022469	8
	37	50	200.3205	20854.54	-412.5942	1	20858.62	-1.133414	8.7487E-008	-0.0022615	8
	38	52	158.0056	20910.54	-452.8827	1	20915.44	-1.240724	9.752988E-008	-0.0022602	8
	39	53	125.558	20976.28	-497.8789	1	20982.18	-1.359679	8.664649E-008	-0.0022646	8
	40	54	99.734	21038.01	-550.0223	1	21045.2	-1.497612	1.004536E-007	-0.0022695	8
	41	55	79.44915	21119.8	-608.978	1	21128.58	-1.651635	6.513727E-008	-0.0022771	8
	42	57	63.34459	21198.61	-678.2719	1	21209.46	-1.832613	6.229003E-008	-0.002292	8
	43	58	49.86702	21290.03	-764.7408	1	21303.76	-2.057188	6.176105E-008	-0.0022865	8
	44	59	38.42213	21403.36	-865.7822	1	21420.86	-2.316395	4.872862E-008	-0.0022854	8
	45	60	31.25	21501.66	-960.179	1	21523.08	-2.556904	6.155588E-008	-0.0022912	8
	46	62	24.93351	21622.04	-1078.077	1	21648.89	-2.85441	5.237749E-008	-0.0022868	8
	47	63	20.03205	21747.29	-1208.725	1	21780.86	-3.181255	3.94478E-008	-0.0022873	8
	48	64	15.625	21911.79	-1375.832	1	21954.94	-3.592863	5.449898E-008	-0.0022944	8
	49	66	12.46675	22079.26	-1550.589	1	22133.64	-4.017189	4.882762E-008	-0.0022889	8
	50	67	9.9734	22267.36	-1746.42	1	22335.74	-4.484504	4.712003E-008	-0.002286	8
	51	69	7.971939	22476.54	-1969.302	1	22562.64	-5.007236	4.611326E-008	-0.0022859	8
	52	71	6.351626	22715.4	-2224.67	1	22824.08	-5.593518	3.832208E-008	-0.0022871	8
	53	73	5.013369	22995.05	-2527.878	1	23133.58	-6.273414	5.009408E-008	-0.0022906	8
	54	75	3.985969	23308.47	-2858.027	1	23483.04	-6.990572	4.625545E-008	-0.0022865	8
	55	77	3.175813	23664.48	-3228.463	1	23883.69	-7.768703	3.570941E-008	-0.0022876	8
	56	80	2.516103	24079.66	-3619.564	1	24350.18	-8.548487	3.974383E-008	-0.002286	8
	57	83	1.99553	24561.99	-4103.161	1	24902.36	-9.483873	4.008326E-008	-0.0022867	8
	58	87	1.587906	25102.15	-4640.674	1	25527.51	-10.4741	4.598737E-008	-0.0022871	8
	59	91	1.258052	25741.21	-5244.751	1	26270.08	-11.51633	5.045928E-008	-0.0022853	8
	60	96	0.997765	26470.58	-5917.203	1	27123.88	-12.60067	4.735274E-008	-0.0022846	8
	61	101	0.7927448	27287.9	-6663.649	1	28089.75	-13.72294	5.323795E-008	-0.0022861	8
	62	108	0.6290258	28224.53	-7489.54	1	29201.33	-14.86127	5.721947E-008	-0.0022835	8
	63	115	0.4988825	29318.56	-8391.462	1	30495.81	-15.97201	6.872303E-008	-0.0022857	8
	64	124	0.3985969	30530.02	-9357.57	1	31931.9	-17.04051	7.442991E-008	-0.0022872	7
	65	136	0.316723	31992.77	-10462.09	1	33659.96	-18.10848	8.540614E-008	-0.0022882	7
	66	149	0.2514753	33679.09	-11657.07	1	35639.43	-19.09186	1.021678E-007	-0.0022875	7
	67	166	0.1999787	35602.43	-12918.99	1	37873.91	-19.94422	1.271743E-007	-0.0022875	7
	68	187	0.1587906	37792.09	-14200.1	1	40371.83	-20.59334	1.507139E-007	-0.0022869	7
	69	213	0.1260081	40226.3	-15527.8	1	43119.23	-21.10714	1.767571E-007	-0.0022869	7
	70	243	0.1001603	42930.74	-16750.03	1	46082.67	-21.31394	1.940948E-007	-0.0022869	7
