EXPLAIN
TAG	EISPOT
TITLE	LABEL	Potentiostatic EIS	Test &Identifier
DATE	LABEL	21.9.2016	Date
TIME	LABEL	14:40:12	Time
NOTES	NOTES	1	&Notes...
	
PSTAT	PSTAT	IFC1000-05175	Potentiostat
VDC	POTEN	0.00000E+000	T	DC &Voltage (V)
FREQINIT	QUANT	1.00000E+006	Initial Fre&q. (Hz)
FREQFINAL	QUANT	1.00000E-001	Final Fre&q. (Hz)
PTSPERDEC	QUANT	1.00000E+001	Points/&decade
VAC	QUANT	1.00000E+002	AC &Voltage (mV rms)
AREA	QUANT	1.00000E+000	&Area (cm^2)
CONDIT	TWOPARAM	F	1.50000E+001	0.00000E+000	Conditionin&g	Time(s)	E(V)
DELAY	TWOPARAM	F	6.00000E+001	0.00000E+000	Init. De&lay	Time(s)	Stab.(mV/s)
SPEED	SELECTOR	1	&Optimize for:
ZGUESS	QUANT	1.00000E+002	E&stimated Z (ohms)
OCVCURVE	TABLE	40
	Pt	T	Vf	Vm	Ach	Over
	#	s	V vs. Ref.	V	V	bits
	0	0.25	1.14605E-002	1.14605E-002	0.00000E+000	...........
	1	0.5	1.14594E-002	1.13998E-002	0.00000E+000	...........
	2	0.75	1.14522E-002	1.13388E-002	0.00000E+000	...........
	3	1	1.14315E-002	1.12763E-002	0.00000E+000	...........
	4	1.25	1.13938E-002	1.12125E-002	0.00000E+000	...........
	5	1.5	1.13421E-002	1.11541E-002	0.00000E+000	...........
	6	1.75	1.12827E-002	1.10980E-002	0.00000E+000	...........
	7	2	1.12215E-002	1.10478E-002	0.00000E+000	...........
	8	2.25	1.11622E-002	1.10042E-002	0.00000E+000	...........
	9	2.5	1.11068E-002	1.09641E-002	0.00000E+000	...........
	10	2.75	1.10562E-002	1.09225E-002	0.00000E+000	...........
	11	3	1.10101E-002	1.08846E-002	0.00000E+000	...........
	12	3.25	1.09676E-002	1.08597E-002	0.00000E+000	...........
	13	3.5	1.09285E-002	1.08241E-002	0.00000E+000	...........
	14	3.75	1.08926E-002	1.07917E-002	0.00000E+000	...........
	15	4	1.08592E-002	1.07637E-002	0.00000E+000	...........
	16	4.25	1.08272E-002	1.07342E-002	0.00000E+000	...........
	17	4.5	1.07960E-002	1.07009E-002	0.00000E+000	...........
	18	4.75	1.07654E-002	1.06673E-002	0.00000E+000	...........
	19	5	1.07345E-002	1.06353E-002	0.00000E+000	...........
	20	5.25	1.07029E-002	1.06086E-002	0.00000E+000	...........
	21	5.5	1.06713E-002	1.05849E-002	0.00000E+000	...........
	22	5.75	1.06410E-002	1.05556E-002	0.00000E+000	...........
	23	6	1.06122E-002	1.05183E-002	0.00000E+000	...........
	24	6.25	1.05837E-002	1.04873E-002	0.00000E+000	...........
	25	6.5	1.05537E-002	1.04507E-002	0.00000E+000	...........
	26	6.75	1.05219E-002	1.04183E-002	0.00000E+000	...........
	27	7	1.04886E-002	1.03863E-002	0.00000E+000	...........
	28	7.25	1.04551E-002	1.03583E-002	0.00000E+000	...........
	29	7.5	1.04221E-002	1.03205E-002	0.00000E+000	...........
	30	7.75	1.03894E-002	1.02748E-002	0.00000E+000	...........
	31	8	1.03555E-002	1.02328E-002	0.00000E+000	...........
	32	8.25	1.03185E-002	1.01938E-002	0.00000E+000	...........
	33	8.5	1.02792E-002	1.01680E-002	0.00000E+000	...........
	34	8.75	1.02400E-002	1.01388E-002	0.00000E+000	...........
	35	9	1.02037E-002	1.01167E-002	0.00000E+000	...........
	36	9.25	1.01719E-002	1.00975E-002	0.00000E+000	...........
	37	9.5	1.01444E-002	1.00783E-002	0.00000E+000	...........
	38	9.75	1.01206E-002	1.00617E-002	0.00000E+000	...........
	39	10	1.00996E-002	1.00404E-002	0.00000E+000	...........
EOC	QUANT	0.0100996	Open Circuit (V)
PSTATMODEL	IQUANT	48	Pstat Model
PSTATSECTION	LABEL	IFC1000-05175	Pstat Section
PSTATSERIALNO	LABEL	05175	Pstat Serial Number
CTRLMODE	IQUANT	1	Control Mode
IESTAB	IQUANT	0	I/E Stability
CASPEED	IQUANT	1	Control Amp Speed
CONVENTION	IQUANT	1	Current Convention
ICHRANGE	IQUANT	2	Ich Range
ICHRANGEMODE	TOGGLE	F	Ich Auto Range
ICHOFFSETENABLE	TOGGLE	T	Ich Offset Enable
ICHOFFSET	QUANT	0	Ich Offset (V)
ICHFILTER	IQUANT	4	Ich Filter
VCHRANGE	IQUANT	2	Vch Range
VCHRANGEMODE	TOGGLE	F	Vch Auto Range
VCHOFFSETENABLE	TOGGLE	T	Vch Offset Enable
VCHOFFSET	QUANT	0	Vch Offset (V)
VCHFILTER	IQUANT	4	Vch Filter
IERANGELOWERLIMIT	IQUANT	4	I/E Range Lower Limit
IERANGEMODE	TOGGLE	F	I/E AutoRange
IERANGE	IQUANT	9	I/E Range
ACHSELECT	IQUANT	4	Ach Select
CABLEID	IQUANT	14	Cable ID
DCCALDATE	LABEL	27.2.2015	DC Calibration Date
ACCALDATE	LABEL	27.2.2015	AC Calibration Date
FRAMEWORKVERSION	QUANT	6.2	Framework Version
INSTRUMENTVERSION	LABEL	3.20	Instrument Version
ZCURVE	TABLE
	Pt	Time	Freq	Zreal	Zimag	Zsig	Zmod	Zphz	Idc	Vdc	IERange
	#	s	Hz	ohm	ohm	V	ohm	°	A	V	#
	0	1	1000020	786.9801	-48.48117	1	788.472	-3.525198	1.675433E-006	0.0103355	9
	1	3	794355.5	789.5688	-40.39399	1	790.6014	-2.928673	1.940256E-006	0.0104589	9
	2	4	630996.1	791.4568	-32.9861	1	792.1439	-2.386575	1.860327E-006	0.0102931	9
	3	5	501269.5	792.7727	-27.06899	1	793.2347	-1.955588	1.927284E-006	0.0102035	9
	4	7	398144.5	793.7982	-22.26971	1	794.1105	-1.60699	1.914472E-006	0.0101468	9
	5	8	316230.5	794.5917	-18.44321	1	794.8057	-1.32965	1.902649E-006	0.0101059	9
	6	9	251191.4	795.2668	-15.46171	1	795.4171	-1.113814	1.920781E-006	0.0100812	9
	7	11	199628.9	795.7794	-13.26376	1	795.89	-0.954897	1.915549E-006	0.0100637	9
	8	12	158496.1	796.2924	-11.74139	1	796.3789	-0.844769	1.938778E-006	0.010015	9
	9	13	125918	796.9727	-10.72671	1	797.0449	-0.7711154	1.92557E-006	0.0100162	9
	10	15	100019.5	797.8247	-10.1517	1	797.8893	-0.7290047	-1.764266E-008	0.0098925	9
	11	16	79511.72	798.8448	-9.63519	1	798.9029	-0.6910341	-2.437911E-008	0.0098887	9
	12	18	63105.47	799.3445	-10.06995	1	799.4079	-0.7217603	-2.157183E-008	0.0098861	9
	13	19	50214.84	800.3809	-10.42872	1	800.4489	-0.7465041	5.086504E-009	0.0098842	9
	14	20	39902.34	801.519	-11.04145	1	801.5951	-0.7892373	-2.863235E-009	0.0098831	9
	15	22	31699.22	802.8306	-11.88794	1	802.9186	-0.8483473	1.695513E-008	0.0098831	9
	16	23	25136.72	804.3599	-12.92927	1	804.4638	-0.9208919	2.147235E-008	0.0098811	9
	17	24	19980.47	805.9362	-14.1416	1	806.0603	-1.005254	4.068292E-008	0.0098808	9
	18	25	15878.91	807.7814	-15.58725	1	807.9318	-1.105464	2.693304E-008	0.0098831	9
	19	27	12597.66	809.7586	-17.23628	1	809.942	-1.219396	5.358891E-008	0.0098814	9
	20	28	10019.53	811.9207	-19.07826	1	812.1448	-1.346071	4.33414E-008	0.0098819	9
	21	30	7928.241	814.3478	-21.26437	1	814.6254	-1.495776	-2.941199E-009	0.009913	9
	22	31	6307.871	816.9526	-23.71374	1	817.2967	-1.662661	-1.22616E-008	0.0099123	9
	23	32	5034.722	819.7869	-26.46638	1	820.2141	-1.849121	2.157377E-007	0.0099155	9
	24	33	3993.056	822.9467	-29.73812	1	823.4838	-2.069548	2.284021E-007	0.0099166	9
	25	35	3144.055	826.6306	-33.62109	1	827.3141	-2.329076	2.192922E-007	0.0099155	9
	26	36	2519.531	830.4044	-37.78085	1	831.2634	-2.604986	2.390897E-007	0.0099152	9
	27	37	2000.762	834.7986	-42.72495	1	835.8912	-2.929838	2.49816E-007	0.0099141	9
	28	39	1580.669	839.8279	-48.58324	1	841.2319	-3.310817	2.546194E-007	0.0099137	9
	29	40	1253.634	845.4228	-55.20853	1	847.2235	-3.736273	2.406424E-007	0.009914	9
	30	41	1000.702	851.5955	-62.607	1	853.8937	-4.204667	2.466308E-007	0.0099173	9
	31	43	790.0281	858.9324	-71.51573	1	861.9045	-4.759537	2.465005E-007	0.0099175	9
	32	44	628.811	866.9901	-81.39195	1	870.8022	-5.363138	2.489713E-007	0.009916	9
	33	45	502.2321	876.0986	-92.50742	1	880.969	-6.027538	2.807847E-007	0.0099205	9
	34	46	400.1524	886.6078	-105.2788	1	892.8365	-6.771787	2.884807E-007	0.0099169	9
	35	48	315.5048	899.2005	-120.5729	1	907.2482	-7.637178	2.760236E-007	0.0099207	9
	36	49	252.0161	912.9433	-137.0093	1	923.1668	-8.534926	2.758028E-007	0.0099178	9
	37	50	200.3205	929.092	-156.0284	1	942.1024	-9.53309	2.658555E-007	0.0099158	9
	38	51	158.0056	948.3713	-178.2647	1	964.98	-10.64563	2.953071E-007	0.0099183	9
	39	53	125.558	970.005	-202.5959	1	990.937	-11.79724	2.891551E-007	0.0099167	9
	40	54	99.734	994.986	-229.8275	1	1021.184	-13.00639	3.068392E-007	0.0099186	9
	41	55	79.44915	1025.099	-259.9533	1	1057.546	-14.22959	-8.167733E-007	0.0098929	9
	42	57	63.34459	1057.629	-293.0529	1	1097.478	-15.48725	-7.108036E-007	0.0098941	9
	43	58	49.86702	1096.967	-331.4296	1	1145.941	-16.81129	-6.100647E-007	0.0098976	9
	44	59	38.42213	1146.351	-377.5756	1	1206.932	-18.23042	-5.232635E-007	0.0098934	9
	45	60	31.25	1191.227	-417.1095	1	1262.142	-19.29776	-4.292053E-007	0.0098968	9
	46	62	24.93351	1246.5	-464.1139	1	1330.1	-20.42199	-5.004059E-007	0.0098942	9
	47	63	20.03205	1305.979	-512.8408	1	1403.064	-21.43928	-4.29895E-007	0.0098912	9
	48	65	15.625	1381.782	-572.1761	1	1495.562	-22.49375	-3.173884E-007	0.0098922	9
	49	66	12.46675	1459.766	-630.501	1	1590.109	-23.36045	-2.465447E-007	0.0098978	9
	50	68	9.9734	1544.189	-691.6006	1	1691.99	-24.12633	-1.832682E-007	0.0098979	9
	51	69	7.971939	1637.807	-756.9921	1	1804.287	-24.80631	-1.295569E-007	0.0098956	9
	52	71	6.351626	1742.494	-827.557	1	1929.025	-25.40429	-8.995201E-008	0.0098909	9
	53	73	5.013369	1862.631	-905.4585	1	2071.051	-25.92522	-1.27452E-008	0.009897	9
	54	75	3.985969	1990.784	-985.026	1	2221.147	-26.32588	3.246181E-008	0.0098971	9
	55	77	3.175813	2130.118	-1067.865	1	2382.801	-26.6254	7.065101E-008	0.0098924	9
	56	80	2.516103	2287.849	-1153.818	1	2562.333	-26.76293	9.474593E-008	0.0098936	9
	57	83	1.99553	2456.344	-1245.597	1	2754.113	-26.88928	1.321027E-007	0.0098954	9
	58	87	1.587906	2638.043	-1339.247	1	2958.522	-26.91539	1.664181E-007	0.0098931	9
	59	91	1.258052	2837.32	-1436.71	1	3180.333	-26.85591	2.104664E-007	0.0098953	9
	60	96	0.997765	3049.55	-1535	1	3414.085	-26.71854	1.725887E-007	0.0098937	8
	61	101	0.7927448	3274.745	-1635.063	1	3660.244	-26.53272	1.995079E-007	0.0098949	8
	62	108	0.6290258	3515.75	-1738.117	1	3921.931	-26.30688	2.029555E-007	0.0098934	8
	63	115	0.4988825	3770.332	-1843.524	1	4196.902	-26.05657	2.482184E-007	0.0098948	8
	64	124	0.3985969	4027.585	-1949.151	1	4474.442	-25.82468	2.890633E-007	0.0098929	8
	65	135	0.316723	4303.454	-2060.92	1	4771.489	-25.58972	3.501422E-007	0.0098947	8
	66	149	0.2514753	4593.682	-2178.615	1	5084.121	-25.37328	3.759422E-007	0.0098923	8
	67	166	0.1999787	4903.617	-2304.116	1	5417.971	-25.16794	3.678161E-007	0.0098924	8
	68	187	0.1587906	5236.27	-2441.931	1	5777.676	-25.00196	3.258038E-007	0.0098929	8
	69	213	0.1260081	5593.632	-2589.882	1	6164.106	-24.84439	3.067034E-007	0.0098927	8
	70	243	0.1001603	5960.292	-2742.674	1	6561.048	-24.70988	2.836885E-007	0.0098924	8
