EXPLAIN
TAG	EISPOT
TITLE	LABEL	Potentiostatic EIS	Test &Identifier
DATE	LABEL	22.9.2016	Date
TIME	LABEL	11:12:29	Time
NOTES	NOTES	1	&Notes...
	
PSTAT	PSTAT	IFC1000-05175	Potentiostat
VDC	POTEN	0.00000E+000	T	DC &Voltage (V)
FREQINIT	QUANT	1.00000E+006	Initial Fre&q. (Hz)
FREQFINAL	QUANT	1.00000E-001	Final Fre&q. (Hz)
PTSPERDEC	QUANT	1.00000E+001	Points/&decade
VAC	QUANT	1.00000E+002	AC &Voltage (mV rms)
AREA	QUANT	1.00000E+000	&Area (cm^2)
CONDIT	TWOPARAM	F	1.50000E+001	0.00000E+000	Conditionin&g	Time(s)	E(V)
DELAY	TWOPARAM	F	6.00000E+001	0.00000E+000	Init. De&lay	Time(s)	Stab.(mV/s)
SPEED	SELECTOR	1	&Optimize for:
ZGUESS	QUANT	1.00000E+002	E&stimated Z (ohms)
OCVCURVE	TABLE	40
	Pt	T	Vf	Vm	Ach	Over
	#	s	V vs. Ref.	V	V	bits
	0	0.25	3.68218E-002	3.68218E-002	0.00000E+000	...........
	1	0.5	3.68164E-002	3.65377E-002	0.00000E+000	...........
	2	0.75	3.67829E-002	3.62606E-002	0.00000E+000	...........
	3	1	3.66877E-002	3.59941E-002	0.00000E+000	...........
	4	1.25	3.65155E-002	3.56950E-002	0.00000E+000	...........
	5	1.5	3.62805E-002	3.53770E-002	0.00000E+000	...........
	6	1.75	3.60069E-002	3.50903E-002	0.00000E+000	...........
	7	2	3.57143E-002	3.48192E-002	0.00000E+000	...........
	8	2.25	3.54174E-002	3.45408E-002	0.00000E+000	...........
	9	2.5	3.51257E-002	3.42755E-002	0.00000E+000	...........
	10	2.75	3.48429E-002	3.40232E-002	0.00000E+000	...........
	11	3	3.45689E-002	3.37617E-002	0.00000E+000	...........
	12	3.25	3.43015E-002	3.34627E-002	0.00000E+000	...........
	13	3.5	3.40359E-002	3.32024E-002	0.00000E+000	...........
	14	3.75	3.37684E-002	3.29844E-002	0.00000E+000	...........
	15	4	3.35036E-002	3.27962E-002	0.00000E+000	...........
	16	4.25	3.32526E-002	3.25930E-002	0.00000E+000	...........
	17	4.5	3.30219E-002	3.23785E-002	0.00000E+000	...........
	18	4.75	3.28067E-002	3.21228E-002	0.00000E+000	...........
	19	5	3.25948E-002	3.19142E-002	0.00000E+000	...........
	20	5.25	3.23780E-002	3.17058E-002	0.00000E+000	...........
	21	5.5	3.21570E-002	3.14846E-002	0.00000E+000	...........
	22	5.75	3.19367E-002	3.12700E-002	0.00000E+000	...........
	23	6	3.17189E-002	3.10611E-002	0.00000E+000	...........
	24	6.25	3.15026E-002	3.08139E-002	0.00000E+000	...........
	25	6.5	3.12828E-002	3.04753E-002	0.00000E+000	...........
	26	6.75	3.10490E-002	3.02117E-002	0.00000E+000	...........
	27	7	3.07943E-002	2.99949E-002	0.00000E+000	...........
	28	7.25	3.05281E-002	2.98060E-002	0.00000E+000	...........
	29	7.5	3.02717E-002	2.96551E-002	0.00000E+000	...........
	30	7.75	3.00384E-002	2.93019E-002	0.00000E+000	...........
	31	8	2.98108E-002	2.86482E-002	0.00000E+000	...........
	32	8.25	2.95103E-002	2.67503E-002	0.00000E+000	...........
	33	8.5	2.89974E-002	2.58140E-002	0.00000E+000	...........
	34	8.75	2.81877E-002	2.51208E-002	0.00000E+000	...........
	35	9	2.71793E-002	2.44935E-002	0.00000E+000	...........
	36	9.25	2.61758E-002	2.39384E-002	0.00000E+000	...........
	37	9.5	2.53115E-002	2.34612E-002	0.00000E+000	...........
	38	9.75	2.46060E-002	2.30281E-002	0.00000E+000	...........
	39	10	2.40234E-002	2.26044E-002	0.00000E+000	...........
EOC	QUANT	0.0240234	Open Circuit (V)
PSTATMODEL	IQUANT	48	Pstat Model
PSTATSECTION	LABEL	IFC1000-05175	Pstat Section
PSTATSERIALNO	LABEL	05175	Pstat Serial Number
CTRLMODE	IQUANT	1	Control Mode
IESTAB	IQUANT	0	I/E Stability
CASPEED	IQUANT	1	Control Amp Speed
CONVENTION	IQUANT	1	Current Convention
ICHRANGE	IQUANT	2	Ich Range
ICHRANGEMODE	TOGGLE	F	Ich Auto Range
ICHOFFSETENABLE	TOGGLE	T	Ich Offset Enable
ICHOFFSET	QUANT	0	Ich Offset (V)
ICHFILTER	IQUANT	4	Ich Filter
VCHRANGE	IQUANT	2	Vch Range
VCHRANGEMODE	TOGGLE	F	Vch Auto Range
VCHOFFSETENABLE	TOGGLE	T	Vch Offset Enable
VCHOFFSET	QUANT	0	Vch Offset (V)
VCHFILTER	IQUANT	4	Vch Filter
IERANGELOWERLIMIT	IQUANT	4	I/E Range Lower Limit
IERANGEMODE	TOGGLE	F	I/E AutoRange
IERANGE	IQUANT	9	I/E Range
ACHSELECT	IQUANT	4	Ach Select
CABLEID	IQUANT	14	Cable ID
DCCALDATE	LABEL	27.2.2015	DC Calibration Date
ACCALDATE	LABEL	27.2.2015	AC Calibration Date
FRAMEWORKVERSION	QUANT	6.2	Framework Version
INSTRUMENTVERSION	LABEL	3.20	Instrument Version
ZCURVE	TABLE
	Pt	Time	Freq	Zreal	Zimag	Zsig	Zmod	Zphz	Idc	Vdc	IERange
	#	s	Hz	ohm	ohm	V	ohm	°	A	V	#
	0	1	1000020	5076.138	-5103.129	1	7197.854	-45.15192	1.697966E-006	0.0244114	9
	1	2	794355.5	6219.692	-4997.402	1	7978.634	-38.7812	1.833892E-006	0.0244731	9
	2	4	630996.1	7317.612	-4639.9	1	8664.647	-32.37768	1.924026E-006	0.0243386	9
	3	5	501269.5	8196.499	-4127.162	1	9176.931	-26.72651	1.909303E-006	0.0242718	9
	4	6	398144.5	8882.023	-3523.638	1	9555.44	-21.639	2.002184E-006	0.0242141	9
	5	8	316230.5	9323.278	-2999.32	1	9793.85	-17.8331	1.913854E-006	0.0241826	9
	6	9	251191.4	9737.84	-2332.946	1	10013.4	-13.47272	1.181739E-006	0.023642	8
	7	11	199628.9	9934.94	-1913.257	1	10117.49	-10.9005	1.179544E-006	0.0236378	8
	8	12	158496.1	10068.57	-1548.764	1	10186.99	-8.744794	1.158897E-006	0.0236502	8
	9	13	125918	10154.49	-1248.444	1	10230.95	-7.009058	1.18878E-006	0.0236563	8
	10	15	100019.5	10209.71	-998.292	1	10258.4	-5.584554	2.64061E-007	0.0239558	8
	11	16	79511.72	10244.62	-800.9407	1	10275.89	-4.47038	2.784597E-007	0.0239531	8
	12	17	63105.47	10269.15	-640.218	1	10289.09	-3.567421	2.897366E-007	0.0239511	8
	13	19	50214.84	10277.29	-507.6795	1	10289.82	-2.82801	2.959951E-007	0.023949	8
	14	20	39902.34	10289.26	-419.2859	1	10297.8	-2.333504	3.054489E-007	0.0239471	8
	15	21	31699.22	10299.27	-341.928	1	10304.94	-1.901479	3.170983E-007	0.0239466	8
	16	23	25136.72	10301.51	-277.4241	1	10305.25	-1.542627	3.308312E-007	0.0239464	8
	17	24	19980.47	10303.39	-232.4464	1	10306.01	-1.292385	3.373714E-007	0.0239438	8
	18	25	15878.91	10308.09	-196.434	1	10309.96	-1.091713	3.384729E-007	0.0239428	8
	19	27	12597.66	10309.88	-168.9028	1	10311.26	-0.9385714	3.391392E-007	0.0239469	8
	20	28	10019.53	10314.89	-147.0149	1	10315.94	-0.8165633	3.418235E-007	0.0239448	8
	21	29	7928.241	10316.68	-132.1073	1	10317.52	-0.733645	2.863629E-007	0.024085	8
	22	31	6307.871	10325	-120.9495	1	10325.71	-0.6711456	2.955481E-007	0.0240819	8
	23	32	5034.722	10325.96	-115.2229	1	10326.6	-0.6393124	4.362142E-007	0.0239616	8
	24	33	3993.056	10331.28	-113.0066	1	10331.9	-0.626693	4.407147E-007	0.0239623	8
	25	34	3144.055	10338.38	-114.1025	1	10339	-0.6323362	4.479798E-007	0.0239594	8
	26	36	2519.531	10345.35	-117.4776	1	10346.01	-0.6505998	4.548103E-007	0.0239586	8
	27	37	2000.762	10354.13	-123.4513	1	10354.87	-0.6830996	4.861812E-007	0.0239591	8
	28	38	1580.669	10364.77	-132.3081	1	10365.61	-0.7313512	4.931827E-007	0.0239624	8
	29	40	1253.634	10375.93	-142.8184	1	10376.92	-0.7885914	4.971703E-007	0.0239628	8
	30	41	1000.702	10389.77	-156.5968	1	10390.95	-0.8635089	5.003973E-007	0.0239637	8
	31	42	790.0281	10405.14	-173.2812	1	10406.58	-0.954083	4.933327E-007	0.023965	8
	32	44	628.811	10422.21	-191.72	1	10423.98	-1.053856	5.113598E-007	0.0239596	8
	33	45	502.2321	10440.89	-213.2507	1	10443.06	-1.170079	5.142014E-007	0.0239633	8
	34	46	400.1524	10462.81	-237.872	1	10465.52	-1.302395	5.17835E-007	0.0239639	8
	35	47	315.5048	10488.46	-268.2716	1	10491.89	-1.46518	5.269674E-007	0.0239639	8
	36	49	252.0161	10515.94	-301.1551	1	10520.25	-1.640387	5.241286E-007	0.0239729	8
	37	50	200.3205	10548.27	-339.7065	1	10553.73	-1.844571	5.303473E-007	0.0239655	8
	38	51	158.0056	10585.84	-385.8098	1	10592.87	-2.087268	5.411221E-007	0.0239646	8
	39	52	125.558	10628.17	-436.6043	1	10637.14	-2.352382	5.396809E-007	0.0239635	8
	40	54	99.734	10676.46	-494.8449	1	10687.93	-2.653711	5.50689E-007	0.0239617	8
	41	55	79.44915	10739.24	-558.2616	1	10753.74	-2.975748	4.544578E-007	0.0239465	8
	42	56	63.34459	10802.4	-632.3073	1	10820.89	-3.349928	4.514531E-007	0.0239434	8
	43	57	49.86702	10879.74	-722.7592	1	10903.72	-3.800669	4.519842E-007	0.0239424	8
	44	59	38.42213	10976.86	-831.6317	1	11008.32	-4.332579	4.452229E-007	0.0239365	8
	45	60	31.25	11064.88	-928.1674	1	11103.74	-4.79498	4.574715E-007	0.023933	8
	46	61	24.93351	11176.49	-1048.348	1	11225.55	-5.358628	4.434857E-007	0.0239444	8
	47	63	20.03205	11295.15	-1177.606	1	11356.37	-5.952021	4.318361E-007	0.0239412	8
	48	64	15.625	11450.21	-1341.385	1	11528.51	-6.681711	4.709609E-007	0.0239345	8
	49	66	12.46675	11609.31	-1508.647	1	11706.93	-7.404178	4.734152E-007	0.0239409	8
	50	67	9.9734	11787.28	-1693.711	1	11908.34	-8.176848	4.796038E-007	0.0239422	8
	51	69	7.971939	11989.13	-1900.686	1	12138.86	-9.008366	4.916463E-007	0.0239414	8
	52	71	6.351626	12220.29	-2133.869	1	12405.19	-9.90495	4.952843E-007	0.0239399	8
	53	73	5.013369	12491.76	-2404.174	1	12721.02	-10.89398	5.405265E-007	0.0239378	8
	54	75	3.985969	12789.11	-2695.533	1	13070.09	-11.90191	5.509276E-007	0.0239431	8
	55	77	3.175813	13122.42	-3017.51	1	13464.89	-12.95008	5.546127E-007	0.0239397	8
	56	80	2.516103	13510.25	-3359.81	1	13921.75	-13.96537	5.651945E-007	0.0239429	8
	57	83	1.99553	13942.68	-3766.402	1	14442.44	-15.11677	5.762573E-007	0.0239437	8
	58	87	1.587906	14433.97	-4212.059	1	15035.99	-16.26807	5.955175E-007	0.0239421	8
	59	91	1.258052	14985.89	-4703.399	1	15706.65	-17.42474	6.025478E-007	0.0239434	8
	60	96	0.997765	15618.99	-5244.886	1	16476.09	-18.56215	6.13078E-007	0.0239417	8
	61	101	0.7927448	16317.6	-5829.768	1	17327.73	-19.66022	6.382379E-007	0.0239432	8
	62	107	0.6290258	17113.47	-6464.996	1	18293.9	-20.69518	6.910578E-007	0.0239427	8
	63	115	0.4988825	17985.38	-7147.968	1	19353.75	-21.67446	7.217112E-007	0.023943	8
	64	124	0.3985969	18964.36	-7861.936	1	20529.41	-22.51713	7.504373E-007	0.0239416	8
	65	135	0.316723	20070.49	-8636.336	1	21849.73	-23.28222	7.853853E-007	0.0239399	8
	66	149	0.2514753	21335.59	-9449.917	1	23334.7	-23.88941	8.074236E-007	0.0239398	8
	67	166	0.1999787	22684.97	-10221.85	1	24881.6	-24.25633	8.582721E-007	0.0239406	8
	68	187	0.1587906	24171.03	-11032.87	1	26569.96	-24.53434	8.928398E-007	0.0239411	8
	69	213	0.1260081	25790.39	-11797.7	1	28360.71	-24.58151	9.318156E-007	0.0239412	8
	70	243	0.1001603	27502.83	-12532.99	1	30223.86	-24.49866	9.631068E-007	0.0239398	8
