EXPLAIN
TAG	EISPOT
TITLE	LABEL	Potentiostatic EIS	Test &Identifier
DATE	LABEL	21.9.2016	Date
TIME	LABEL	11:17:07	Time
NOTES	NOTES	1	&Notes...
	
PSTAT	PSTAT	IFC1000-05175	Potentiostat
VDC	POTEN	0.00000E+000	T	DC &Voltage (V)
FREQINIT	QUANT	1.00000E+006	Initial Fre&q. (Hz)
FREQFINAL	QUANT	1.00000E-001	Final Fre&q. (Hz)
PTSPERDEC	QUANT	1.00000E+001	Points/&decade
VAC	QUANT	1.00000E+002	AC &Voltage (mV rms)
AREA	QUANT	1.00000E+000	&Area (cm^2)
CONDIT	TWOPARAM	F	1.50000E+001	0.00000E+000	Conditionin&g	Time(s)	E(V)
DELAY	TWOPARAM	F	6.00000E+001	0.00000E+000	Init. De&lay	Time(s)	Stab.(mV/s)
SPEED	SELECTOR	1	&Optimize for:
ZGUESS	QUANT	1.00000E+002	E&stimated Z (ohms)
OCVCURVE	TABLE	40
	Pt	T	Vf	Vm	Ach	Over
	#	s	V vs. Ref.	V	V	bits
	0	0.25	-2.77714E-002	-2.77714E-002	0.00000E+000	...........
	1	0.5	-2.77711E-002	-2.77574E-002	0.00000E+000	...........
	2	0.75	-2.77694E-002	-2.77414E-002	0.00000E+000	...........
	3	1	-2.77644E-002	-2.77240E-002	0.00000E+000	...........
	4	1.25	-2.77550E-002	-2.77094E-002	0.00000E+000	...........
	5	1.5	-2.77419E-002	-2.76955E-002	0.00000E+000	...........
	6	1.75	-2.77270E-002	-2.76851E-002	0.00000E+000	...........
	7	2	-2.77122E-002	-2.76742E-002	0.00000E+000	...........
	8	2.25	-2.76986E-002	-2.76650E-002	0.00000E+000	...........
	9	2.5	-2.76864E-002	-2.76523E-002	0.00000E+000	...........
	10	2.75	-2.76753E-002	-2.76437E-002	0.00000E+000	...........
	11	3	-2.76648E-002	-2.76356E-002	0.00000E+000	...........
	12	3.25	-2.76546E-002	-2.76275E-002	0.00000E+000	...........
	13	3.5	-2.76452E-002	-2.76192E-002	0.00000E+000	...........
	14	3.75	-2.76364E-002	-2.76124E-002	0.00000E+000	...........
	15	4	-2.76282E-002	-2.76075E-002	0.00000E+000	...........
	16	4.25	-2.76207E-002	-2.76018E-002	0.00000E+000	...........
	17	4.5	-2.76140E-002	-2.75978E-002	0.00000E+000	...........
	18	4.75	-2.76081E-002	-2.75942E-002	0.00000E+000	...........
	19	5	-2.76029E-002	-2.75879E-002	0.00000E+000	...........
	20	5.25	-2.75982E-002	-2.75839E-002	0.00000E+000	...........
	21	5.5	-2.75935E-002	-2.75783E-002	0.00000E+000	...........
	22	5.75	-2.75888E-002	-2.75734E-002	0.00000E+000	...........
	23	6	-2.75839E-002	-2.75669E-002	0.00000E+000	...........
	24	6.25	-2.75787E-002	-2.75616E-002	0.00000E+000	...........
	25	6.5	-2.75733E-002	-2.75545E-002	0.00000E+000	...........
	26	6.75	-2.75675E-002	-2.75489E-002	0.00000E+000	...........
	27	7	-2.75615E-002	-2.75414E-002	0.00000E+000	...........
	28	7.25	-2.75553E-002	-2.75347E-002	0.00000E+000	...........
	29	7.5	-2.75487E-002	-2.75269E-002	0.00000E+000	...........
	30	7.75	-2.75419E-002	-2.75173E-002	0.00000E+000	...........
	31	8	-2.75346E-002	-2.75087E-002	0.00000E+000	...........
	32	8.25	-2.75267E-002	-2.75006E-002	0.00000E+000	...........
	33	8.5	-2.75183E-002	-2.74937E-002	0.00000E+000	...........
	34	8.75	-2.75099E-002	-2.74837E-002	0.00000E+000	...........
	35	9	-2.75015E-002	-2.74736E-002	0.00000E+000	...........
	36	9.25	-2.74930E-002	-2.74644E-002	0.00000E+000	...........
	37	9.5	-2.74840E-002	-2.74560E-002	0.00000E+000	...........
	38	9.75	-2.74748E-002	-2.74460E-002	0.00000E+000	...........
	39	10	-2.74655E-002	-2.74384E-002	0.00000E+000	...........
EOC	QUANT	-0.0274655	Open Circuit (V)
PSTATMODEL	IQUANT	48	Pstat Model
PSTATSECTION	LABEL	IFC1000-05175	Pstat Section
PSTATSERIALNO	LABEL	05175	Pstat Serial Number
CTRLMODE	IQUANT	1	Control Mode
IESTAB	IQUANT	0	I/E Stability
CASPEED	IQUANT	1	Control Amp Speed
CONVENTION	IQUANT	1	Current Convention
ICHRANGE	IQUANT	2	Ich Range
ICHRANGEMODE	TOGGLE	F	Ich Auto Range
ICHOFFSETENABLE	TOGGLE	T	Ich Offset Enable
ICHOFFSET	QUANT	0	Ich Offset (V)
ICHFILTER	IQUANT	4	Ich Filter
VCHRANGE	IQUANT	2	Vch Range
VCHRANGEMODE	TOGGLE	F	Vch Auto Range
VCHOFFSETENABLE	TOGGLE	T	Vch Offset Enable
VCHOFFSET	QUANT	0	Vch Offset (V)
VCHFILTER	IQUANT	4	Vch Filter
IERANGELOWERLIMIT	IQUANT	4	I/E Range Lower Limit
IERANGEMODE	TOGGLE	F	I/E AutoRange
IERANGE	IQUANT	9	I/E Range
ACHSELECT	IQUANT	4	Ach Select
CABLEID	IQUANT	14	Cable ID
DCCALDATE	LABEL	27.2.2015	DC Calibration Date
ACCALDATE	LABEL	27.2.2015	AC Calibration Date
FRAMEWORKVERSION	QUANT	6.2	Framework Version
INSTRUMENTVERSION	LABEL	3.20	Instrument Version
ZCURVE	TABLE
	Pt	Time	Freq	Zreal	Zimag	Zsig	Zmod	Zphz	Idc	Vdc	IERange
	#	s	Hz	ohm	ohm	V	ohm	°	A	V	#
	0	1	1000020	124.0347	4.623946	1	124.1208	2.134967	3.30152E-006	-0.0268283	10
	1	2	794355.5	123.9887	3.380915	1	124.0348	1.56195	3.525136E-006	-0.0267841	10
	2	4	630996.1	124.0292	2.418899	1	124.0528	1.117278	3.38115E-006	-0.0269795	10
	3	5	501269.5	124.1276	1.616217	1	124.1382	0.7459835	3.341509E-006	-0.0270865	10
	4	6	398144.5	124.257	0.9498894	1	124.2607	0.4379921	3.300742E-006	-0.0271382	10
	5	8	316230.5	124.4138	0.4035892	1	124.4145	0.1858626	3.29675E-006	-0.0271825	10
	6	9	251191.4	124.6087	-0.0657228	1	124.6087	-0.0302197	3.341745E-006	-0.0272145	10
	7	10	199628.9	124.7676	-0.4770248	1	124.7686	-0.2190582	3.338338E-006	-0.0272334	10
	8	12	158496.1	124.953	-0.8546559	1	124.9559	-0.3918867	3.304529E-006	-0.027285	10
	9	13	125918	125.1391	-1.223578	1	125.1451	-0.5602056	3.139914E-006	-0.0272957	10
	10	14	100019.5	125.3517	-1.60148	1	125.362	-0.7319646	2.271709E-007	-0.0275051	10
	11	16	79511.72	125.7045	-1.722658	1	125.7163	-0.7851338	1.588792E-007	-0.0275076	10
	12	17	63105.47	125.7201	-2.527422	1	125.7455	-1.151694	1.315677E-007	-0.0275107	10
	13	18	50214.84	126.022	-3.082217	1	126.0597	-1.401048	8.157519E-008	-0.0275114	10
	14	20	39902.34	126.3887	-3.702798	1	126.4429	-1.678109	1.553908E-007	-0.0275111	10
	15	21	31699.22	126.8381	-4.389129	1	126.9141	-1.981882	1.232782E-007	-0.0275132	10
	16	22	25136.72	127.3828	-5.154139	1	127.4871	-2.317027	1.064426E-007	-0.0275131	10
	17	24	19980.47	128.0146	-5.98486	1	128.1544	-2.676708	1.083859E-007	-0.0275129	10
	18	25	15878.91	128.732	-6.901203	1	128.9169	-3.068635	1.456154E-007	-0.0275146	10
	19	26	12597.66	129.5526	-7.92484	1	129.7947	-3.50047	1.161596E-007	-0.0275128	10
	20	28	10019.53	130.4788	-9.070313	1	130.7936	-3.976555	1.987065E-007	-0.0275138	10
	21	29	7928.241	131.534	-10.3934	1	131.944	-4.517942	7.754828E-008	-0.0274993	10
	22	30	6307.871	132.696	-11.86687	1	133.2256	-5.11031	-2.823371E-008	-0.0274984	10
	23	32	5034.722	133.9848	-13.52555	1	134.6657	-5.764392	3.019967E-007	-0.0274831	10
	24	33	3993.056	135.4808	-15.48384	1	136.3628	-6.519934	4.181508E-007	-0.0274795	10
	25	34	3144.055	137.2324	-17.82264	1	138.3849	-7.3997	4.362737E-007	-0.0274816	10
	26	35	2519.531	139.0829	-20.31593	1	140.5589	-8.310456	3.754108E-007	-0.0274821	10
	27	37	2000.762	141.2782	-23.30673	1	143.1877	-9.367742	4.754434E-007	-0.0274819	10
	28	38	1580.669	143.9484	-26.85745	1	146.4324	-10.56855	4.134876E-007	-0.0274815	10
	29	39	1253.634	146.8809	-30.87238	1	150.0903	-11.87001	3.676092E-007	-0.0274822	10
	30	41	1000.702	150.1771	-35.36432	1	154.2848	-13.25083	4.263653E-007	-0.0274816	10
	31	42	790.0281	154.1906	-40.77264	1	159.4903	-14.81171	4.482544E-007	-0.027481	10
	32	43	628.811	158.6967	-46.74825	1	165.4389	-16.41371	4.586817E-007	-0.0274804	10
	33	44	502.2321	163.8577	-53.44052	1	172.3521	-18.06321	5.264916E-007	-0.0274741	10
	34	46	400.1524	169.8965	-61.05759	1	180.5349	-19.76747	5.150236E-007	-0.0274796	10
	35	47	315.5048	177.3069	-70.11601	1	190.6673	-21.57631	5.98938E-007	-0.0274742	10
	36	48	252.0161	185.4649	-79.73109	1	201.8769	-23.2628	6.262604E-007	-0.0274776	10
	37	49	200.3205	195.1055	-90.64746	1	215.1351	-24.91993	6.213396E-007	-0.0274826	10
	38	51	158.0056	206.6422	-103.1817	1	230.9707	-26.53411	7.17298E-007	-0.0274749	10
	39	52	125.558	219.5136	-116.5846	1	248.5522	-27.97296	6.581801E-007	-0.027484	10
	40	53	99.734	234.2692	-131.3613	1	268.5849	-29.28056	7.608086E-007	-0.0274754	10
	41	55	79.44915	250.9845	-147.4134	1	291.0737	-30.42745	-1.820365E-006	-0.0274967	10
	42	56	63.34459	269.5407	-164.8532	1	315.9569	-31.45029	-1.606681E-006	-0.027493	10
	43	57	49.86702	290.9474	-184.5966	1	344.5669	-32.39379	-1.902992E-006	-0.0275009	9
	44	58	38.42213	317.6453	-208.6305	1	380.0331	-33.29704	-1.657859E-006	-0.0275006	9
	45	60	31.25	341.244	-229.5619	1	411.2738	-33.92953	-1.481762E-006	-0.0275028	9
	46	61	24.93351	369.6752	-254.8499	1	449.0081	-34.58194	-1.624752E-006	-0.027504	9
	47	62	20.03205	400.0569	-281.6683	1	489.2674	-35.14825	-1.517318E-006	-0.0275049	9
	48	64	15.625	438.4352	-315.4111	1	540.1014	-35.73131	-1.38441E-006	-0.027504	9
	49	65	12.46675	477.3373	-349.394	1	591.5463	-36.2028	-1.291659E-006	-0.0275011	9
	50	67	9.9734	519.973	-386.3714	1	647.8076	-36.61459	-1.233277E-006	-0.0275007	9
	51	68	7.971939	567.3652	-427.1449	1	710.1802	-36.97452	-1.195933E-006	-0.0275022	9
	52	70	6.351626	620.9689	-472.6304	1	780.3729	-37.27541	-1.193789E-006	-0.0275043	9
	53	72	5.013369	683.1866	-524.7363	1	861.4478	-37.52685	-1.127198E-006	-0.027503	9
	54	74	3.985969	750.3148	-580.1384	1	948.437	-37.71096	-1.0869E-006	-0.027502	9
	55	77	3.175813	824.2457	-640.1405	1	1043.629	-37.83427	-1.096496E-006	-0.0275052	9
	56	79	2.516103	909.7406	-706.618	1	1151.927	-37.83737	-1.125849E-006	-0.0275012	9
	57	82	1.99553	1001.598	-777.4715	1	1267.935	-37.81973	-1.108271E-006	-0.0275021	9
	58	86	1.587906	1104.926	-856.9887	1	1398.317	-37.79741	-1.085161E-006	-0.0275035	9
	59	90	1.258052	1222.002	-944.0381	1	1544.182	-37.68731	-1.074739E-006	-0.0275023	9
	60	96	0.997765	1354.318	-1038.353	1	1706.562	-37.47729	-1.130833E-006	-0.0275017	9
	61	101	0.7927448	1499.664	-1137.658	1	1882.354	-37.18426	-1.155797E-006	-0.0275011	9
	62	107	0.6290258	1661.596	-1244.259	1	2075.832	-36.82711	-1.128927E-006	-0.0274999	9
	63	114	0.4988825	1843.071	-1358.327	1	2289.533	-36.38989	-1.122127E-006	-0.0275014	9
	64	124	0.3985969	2037.855	-1473.393	1	2514.705	-35.86738	-1.133624E-006	-0.0275034	9
	65	135	0.316723	2259.172	-1595.133	1	2765.557	-35.22475	-1.198884E-006	-0.0275038	9
	66	149	0.2514753	2507.138	-1717.692	1	3039.113	-34.41584	-1.362219E-006	-0.0275031	9
	67	166	0.1999787	2780.473	-1837.795	1	3332.945	-33.46329	-1.490774E-006	-0.0275033	8
	68	187	0.1587906	3088.534	-1952.678	1	3654.038	-32.30249	-1.44438E-006	-0.0275046	8
	69	212	0.1260081	3423.067	-2055.985	1	3993.052	-30.99015	-1.503733E-006	-0.0275035	8
	70	243	0.1001603	3778.01	-2154.364	1	4349.097	-29.69342	-1.667736E-006	-0.0275041	8
