EXPLAIN
TAG	EISPOT
TITLE	LABEL	Potentiostatic EIS	Test &Identifier
DATE	LABEL	22.9.2016	Date
TIME	LABEL	10:30:49	Time
NOTES	NOTES	1	&Notes...
	
PSTAT	PSTAT	IFC1000-05175	Potentiostat
VDC	POTEN	0.00000E+000	T	DC &Voltage (V)
FREQINIT	QUANT	1.00000E+006	Initial Fre&q. (Hz)
FREQFINAL	QUANT	1.00000E-001	Final Fre&q. (Hz)
PTSPERDEC	QUANT	1.00000E+001	Points/&decade
VAC	QUANT	1.00000E+002	AC &Voltage (mV rms)
AREA	QUANT	1.00000E+000	&Area (cm^2)
CONDIT	TWOPARAM	F	1.50000E+001	0.00000E+000	Conditionin&g	Time(s)	E(V)
DELAY	TWOPARAM	F	6.00000E+001	0.00000E+000	Init. De&lay	Time(s)	Stab.(mV/s)
SPEED	SELECTOR	1	&Optimize for:
ZGUESS	QUANT	1.00000E+002	E&stimated Z (ohms)
OCVCURVE	TABLE	40
	Pt	T	Vf	Vm	Ach	Over
	#	s	V vs. Ref.	V	V	bits
	0	0.25	1.75782E-002	1.75782E-002	0.00000E+000	...........
	1	0.5	1.75758E-002	1.74496E-002	0.00000E+000	...........
	2	0.75	1.75609E-002	1.73389E-002	0.00000E+000	...........
	3	1	1.75192E-002	1.72170E-002	0.00000E+000	...........
	4	1.25	1.74445E-002	1.70881E-002	0.00000E+000	...........
	5	1.5	1.73430E-002	1.69653E-002	0.00000E+000	...........
	6	1.75	1.72256E-002	1.68315E-002	0.00000E+000	...........
	7	2	1.71004E-002	1.66925E-002	0.00000E+000	...........
	8	2.25	1.69710E-002	1.65524E-002	0.00000E+000	...........
	9	2.5	1.68384E-002	1.64294E-002	0.00000E+000	...........
	10	2.75	1.67043E-002	1.63119E-002	0.00000E+000	...........
	11	3	1.65725E-002	1.62128E-002	0.00000E+000	...........
	12	3.25	1.64470E-002	1.60962E-002	0.00000E+000	...........
	13	3.5	1.63291E-002	1.59968E-002	0.00000E+000	...........
	14	3.75	1.62177E-002	1.59167E-002	0.00000E+000	...........
	15	4	1.61128E-002	1.58357E-002	0.00000E+000	...........
	16	4.25	1.60151E-002	1.57329E-002	0.00000E+000	...........
	17	4.5	1.59233E-002	1.56500E-002	0.00000E+000	...........
	18	4.75	1.58337E-002	1.55476E-002	0.00000E+000	...........
	19	5	1.57433E-002	1.54512E-002	0.00000E+000	...........
	20	5.25	1.56518E-002	1.54136E-002	0.00000E+000	...........
	21	5.5	1.55632E-002	1.53478E-002	0.00000E+000	...........
	22	5.75	1.54832E-002	1.52671E-002	0.00000E+000	...........
	23	6	1.54114E-002	1.51819E-002	0.00000E+000	...........
	24	6.25	1.53412E-002	1.51006E-002	0.00000E+000	...........
	25	6.5	1.52668E-002	1.49919E-002	0.00000E+000	...........
	26	6.75	1.51861E-002	1.49303E-002	0.00000E+000	...........
	27	7	1.51011E-002	1.48551E-002	0.00000E+000	...........
	28	7.25	1.50166E-002	1.47681E-002	0.00000E+000	...........
	29	7.5	1.49351E-002	1.46883E-002	0.00000E+000	...........
	30	7.75	1.48550E-002	1.45933E-002	0.00000E+000	...........
	31	8	1.47734E-002	1.45001E-002	0.00000E+000	...........
	32	8.25	1.46884E-002	1.44176E-002	0.00000E+000	...........
	33	8.5	1.45995E-002	1.42734E-002	0.00000E+000	...........
	34	8.75	1.45050E-002	1.41742E-002	0.00000E+000	...........
	35	9	1.44038E-002	1.41151E-002	0.00000E+000	...........
	36	9.25	1.43010E-002	1.40389E-002	0.00000E+000	...........
	37	9.5	1.42059E-002	1.39859E-002	0.00000E+000	...........
	38	9.75	1.41232E-002	1.39187E-002	0.00000E+000	...........
	39	10	1.40511E-002	1.38364E-002	0.00000E+000	...........
EOC	QUANT	0.0140511	Open Circuit (V)
PSTATMODEL	IQUANT	48	Pstat Model
PSTATSECTION	LABEL	IFC1000-05175	Pstat Section
PSTATSERIALNO	LABEL	05175	Pstat Serial Number
CTRLMODE	IQUANT	1	Control Mode
IESTAB	IQUANT	0	I/E Stability
CASPEED	IQUANT	1	Control Amp Speed
CONVENTION	IQUANT	1	Current Convention
ICHRANGE	IQUANT	2	Ich Range
ICHRANGEMODE	TOGGLE	F	Ich Auto Range
ICHOFFSETENABLE	TOGGLE	T	Ich Offset Enable
ICHOFFSET	QUANT	0	Ich Offset (V)
ICHFILTER	IQUANT	4	Ich Filter
VCHRANGE	IQUANT	2	Vch Range
VCHRANGEMODE	TOGGLE	F	Vch Auto Range
VCHOFFSETENABLE	TOGGLE	T	Vch Offset Enable
VCHOFFSET	QUANT	0	Vch Offset (V)
VCHFILTER	IQUANT	4	Vch Filter
IERANGELOWERLIMIT	IQUANT	4	I/E Range Lower Limit
IERANGEMODE	TOGGLE	F	I/E AutoRange
IERANGE	IQUANT	9	I/E Range
ACHSELECT	IQUANT	4	Ach Select
CABLEID	IQUANT	14	Cable ID
DCCALDATE	LABEL	27.2.2015	DC Calibration Date
ACCALDATE	LABEL	27.2.2015	AC Calibration Date
FRAMEWORKVERSION	QUANT	6.2	Framework Version
INSTRUMENTVERSION	LABEL	3.20	Instrument Version
ZCURVE	TABLE
	Pt	Time	Freq	Zreal	Zimag	Zsig	Zmod	Zphz	Idc	Vdc	IERange
	#	s	Hz	ohm	ohm	V	ohm	°	A	V	#
	0	1	1000020	2887.122	-780.1547	1	2990.671	-15.12126	1.120284E-006	0.0144325	9
	1	3	794355.5	2966.645	-641.4916	1	3035.209	-12.20148	1.302434E-006	0.0144938	9
	2	4	630996.1	3020.183	-522.4534	1	3065.039	-9.81432	1.266267E-006	0.0143446	9
	3	5	501269.5	3056.241	-422.4176	1	3085.295	-7.869265	1.296442E-006	0.0142597	9
	4	7	398144.5	3079.944	-340.8477	1	3098.747	-6.315048	1.286155E-006	0.0142313	9
	5	8	316230.5	3095.838	-273.7691	1	3107.92	-5.053596	1.301861E-006	0.0141968	9
	6	9	251191.4	3123.516	-170.8728	1	3128.187	-3.13126	6.67542E-007	0.0138953	8
	7	11	199628.9	3124.913	-137.1042	1	3127.919	-2.512218	7.001175E-007	0.0138763	8
	8	12	158496.1	3126.463	-110.6996	1	3128.422	-2.027841	7.041347E-007	0.0138787	8
	9	13	125918	3127.85	-90.20753	1	3129.151	-1.651958	7.180355E-007	0.0138259	8
	10	15	100019.5	3129.195	-74.06949	1	3130.071	-1.355965	1.5867E-007	0.0139556	8
	11	16	79511.72	3130.462	-62.28846	1	3131.082	-1.139894	1.785825E-007	0.0139503	8
	12	18	63105.47	3131.735	-53.17117	1	3132.186	-0.972685	1.849046E-007	0.0139439	8
	13	19	50214.84	3133.434	-46.74054	1	3133.783	-0.8546013	2.026542E-007	0.0139404	8
	14	20	39902.34	3135.53	-42.30046	1	3135.816	-0.7729125	2.137151E-007	0.0139405	8
	15	22	31699.22	3137.775	-39.3545	1	3138.022	-0.7185757	2.167486E-007	0.0139414	8
	16	23	25136.72	3140.096	-38.28959	1	3140.33	-0.6986164	2.269203E-007	0.0139388	8
	17	24	19980.47	3143.481	-37.81693	1	3143.708	-0.6892505	2.479827E-007	0.0139378	8
	18	26	15878.91	3146.942	-38.9038	1	3147.182	-0.7082782	2.521615E-007	0.0139415	8
	19	27	12597.66	3150.705	-41.12014	1	3150.973	-0.7477301	2.645899E-007	0.013941	8
	20	28	10019.53	3154.972	-43.60371	1	3155.273	-0.7918136	2.769577E-007	0.0139398	8
	21	30	7928.241	3160.287	-47.43447	1	3160.643	-0.8599192	2.69309E-007	0.014012	8
	22	31	6307.871	3165.634	-51.75169	1	3166.057	-0.9365862	2.71393E-007	0.014013	8
	23	32	5034.722	3171.911	-56.91681	1	3172.422	-1.028006	3.520034E-007	0.0139554	8
	24	33	3993.056	3178.742	-63.14089	1	3179.369	-1.137944	3.644405E-007	0.0139579	8
	25	35	3144.055	3186.613	-70.45859	1	3187.392	-1.26665	3.719728E-007	0.0139553	8
	26	36	2519.531	3194.704	-78.28536	1	3195.663	-1.403737	3.822141E-007	0.0139549	8
	27	37	2000.762	3203.961	-87.65437	1	3205.16	-1.567114	3.961738E-007	0.0139555	8
	28	39	1580.669	3214.412	-98.5924	1	3215.924	-1.756825	3.960993E-007	0.013957	8
	29	40	1253.634	3225.807	-111.1095	1	3227.72	-1.972712	4.029872E-007	0.0139561	8
	30	41	1000.702	3238.265	-125.1161	1	3240.681	-2.212623	4.159128E-007	0.0139574	8
	31	43	790.0281	3252.619	-142.0873	1	3255.721	-2.501316	4.140028E-007	0.0139585	8
	32	44	628.811	3268.504	-161.0363	1	3272.469	-2.82063	4.410782E-007	0.0139521	8
	33	45	502.2321	3286.252	-182.486	1	3291.315	-3.178377	4.326365E-007	0.0139609	8
	34	46	400.1524	3306.443	-207.3204	1	3312.936	-3.587861	4.477003E-007	0.0139589	8
	35	48	315.5048	3330.573	-237.2587	1	3339.013	-4.074673	4.501142E-007	0.0139598	8
	36	49	252.0161	3356.913	-269.5656	1	3367.719	-4.591094	4.424352E-007	0.0139641	8
	37	50	200.3205	3387.685	-307.2375	1	3401.588	-5.18212	4.516255E-007	0.0139559	8
	38	51	158.0056	3424.228	-351.6478	1	3442.237	-5.86338	4.622987E-007	0.0139592	8
	39	53	125.558	3464.983	-400.4846	1	3488.051	-6.593022	4.676681E-007	0.013952	8
	40	54	99.734	3511.904	-455.8645	1	3541.368	-7.395953	4.735297E-007	0.0139564	8
	41	55	79.44915	3570.789	-517.5261	1	3608.098	-8.246641	7.646703E-008	0.0139343	8
	42	56	63.34459	3631.804	-586.9356	1	3678.925	-9.180195	1.024473E-007	0.0139342	8
	43	58	49.86702	3705.623	-669.301	1	3765.581	-10.23825	1.23382E-007	0.0139352	8
	44	59	38.42213	3798.562	-770.7393	1	3875.966	-11.46977	1.459001E-007	0.0139354	8
	45	60	31.25	3883.147	-860.4738	1	3977.342	-12.49439	1.733138E-007	0.0139337	8
	46	62	24.93351	3989.646	-969.364	1	4105.721	-13.65652	1.382847E-007	0.0139381	8
	47	63	20.03205	4104.524	-1085.551	1	4245.65	-14.8142	1.618427E-007	0.013931	8
	48	64	15.625	4252.72	-1231.188	1	4427.353	-16.14605	2.005325E-007	0.0139298	8
	49	66	12.46675	4405.677	-1377.538	1	4616.016	-17.36307	2.308751E-007	0.0139347	8
	50	67	9.9734	4575.583	-1535.924	1	4826.492	-18.55578	2.624906E-007	0.0139353	8
	51	69	7.971939	4766.737	-1710.065	1	5064.198	-19.73543	2.927318E-007	0.013938	8
	52	71	6.351626	4983.389	-1902.978	1	5334.369	-20.90007	3.218233E-007	0.0139329	8
	53	73	5.013369	5235.667	-2123.353	1	5649.853	-22.07528	3.619639E-007	0.0139339	8
	54	75	3.985969	5509.513	-2357.713	1	5992.791	-23.16777	3.919122E-007	0.0139365	8
	55	77	3.175813	5812.213	-2611.652	1	6372.013	-24.19622	4.168657E-007	0.0139339	8
	56	80	2.516103	6163.654	-2888.251	1	6806.807	-25.10751	4.359511E-007	0.0139386	8
	57	83	1.99553	6548.128	-3198.829	1	7287.694	-26.03599	4.659864E-007	0.0139382	8
	58	87	1.587906	6975.589	-3534.283	1	7819.846	-26.86971	4.944571E-007	0.0139346	8
	59	91	1.258052	7464.792	-3901.742	1	8422.987	-27.59544	5.255876E-007	0.0139368	8
	60	96	0.997765	8016.42	-4295.344	1	9094.667	-28.18321	5.335833E-007	0.0139373	8
	61	102	0.7927448	8623.974	-4702.62	1	9822.81	-28.60346	5.647864E-007	0.013938	8
	62	108	0.6290258	9307.299	-5126.189	1	10625.61	-28.84469	5.956139E-007	0.0139382	8
	63	115	0.4988825	10070.19	-5556.724	1	11501.56	-28.88988	6.266902E-007	0.0139382	8
	64	124	0.3985969	10878.99	-5964.294	1	12406.66	-28.7333	6.573368E-007	0.013935	8
	65	136	0.316723	11783.64	-6364.814	1	13392.72	-28.37526	6.886116E-007	0.0139356	8
	66	149	0.2514753	12766.24	-6737.979	1	14435.28	-27.82495	7.250179E-007	0.0139348	8
	67	166	0.1999787	13803.77	-7059.149	1	15504.05	-27.08488	7.684595E-007	0.0139346	8
	68	188	0.1587906	14884.35	-7323.734	1	16588.58	-26.19915	8.036047E-007	0.0139333	8
	69	213	0.1260081	15993.38	-7511.58	1	17669.52	-25.15794	8.470641E-007	0.0139325	8
	70	243	0.1001603	17085.17	-7625.577	1	18709.69	-24.0525	8.907567E-007	0.0139306	8
