EXPLAIN
TAG	EISPOT
TITLE	LABEL	Potentiostatic EIS	Test &Identifier
DATE	LABEL	21.9.2016	Date
TIME	LABEL	10:31:59	Time
NOTES	NOTES	1	&Notes...
	
PSTAT	PSTAT	IFC1000-05175	Potentiostat
VDC	POTEN	0.00000E+000	T	DC &Voltage (V)
FREQINIT	QUANT	1.00000E+006	Initial Fre&q. (Hz)
FREQFINAL	QUANT	1.00000E-001	Final Fre&q. (Hz)
PTSPERDEC	QUANT	1.00000E+001	Points/&decade
VAC	QUANT	1.00000E+002	AC &Voltage (mV rms)
AREA	QUANT	1.00000E+000	&Area (cm^2)
CONDIT	TWOPARAM	F	1.50000E+001	0.00000E+000	Conditionin&g	Time(s)	E(V)
DELAY	TWOPARAM	F	6.00000E+001	0.00000E+000	Init. De&lay	Time(s)	Stab.(mV/s)
SPEED	SELECTOR	1	&Optimize for:
ZGUESS	QUANT	1.00000E+002	E&stimated Z (ohms)
OCVCURVE	TABLE	40
	Pt	T	Vf	Vm	Ach	Over
	#	s	V vs. Ref.	V	V	bits
	0	0.25	1.77274E-003	1.77274E-003	0.00000E+000	...........
	1	0.5	1.77056E-003	1.65873E-003	0.00000E+000	...........
	2	0.75	1.75719E-003	1.55118E-003	0.00000E+000	...........
	3	1	1.71934E-003	1.44364E-003	0.00000E+000	...........
	4	1.25	1.65121E-003	1.33516E-003	0.00000E+000	...........
	5	1.5	1.55937E-003	1.23004E-003	0.00000E+000	...........
	6	1.75	1.45524E-003	1.12746E-003	0.00000E+000	...........
	7	2	1.34772E-003	1.02810E-003	0.00000E+000	...........
	8	2.25	1.24141E-003	9.29959E-004	0.00000E+000	...........
	9	2.5	1.13795E-003	8.36810E-004	0.00000E+000	...........
	10	2.75	1.03757E-003	7.43800E-004	0.00000E+000	...........
	11	3	9.40069E-004	6.52568E-004	0.00000E+000	...........
	12	3.25	8.45056E-004	5.63430E-004	0.00000E+000	...........
	13	3.5	7.52152E-004	4.77592E-004	0.00000E+000	...........
	14	3.75	6.61210E-004	3.91869E-004	0.00000E+000	...........
	15	4	5.72237E-004	3.08686E-004	0.00000E+000	...........
	16	4.25	4.85211E-004	2.28764E-004	0.00000E+000	...........
	17	4.5	4.00134E-004	1.48847E-004	0.00000E+000	...........
	18	4.75	3.16971E-004	6.82104E-005	0.00000E+000	...........
	19	5	2.35399E-004	-1.05346E-005	0.00000E+000	...........
	20	5.25	1.54900E-004	-8.93005E-005	0.00000E+000	...........
	21	5.5	7.52062E-005	-1.62397E-004	0.00000E+000	...........
	22	5.75	-3.40745E-006	-2.34465E-004	0.00000E+000	...........
	23	6	-8.03010E-005	-3.04458E-004	0.00000E+000	...........
	24	6.25	-1.55048E-004	-3.75845E-004	0.00000E+000	...........
	25	6.5	-2.27880E-004	-4.47954E-004	0.00000E+000	...........
	26	6.75	-2.99583E-004	-5.19829E-004	0.00000E+000	...........
	27	7	-3.70937E-004	-5.89450E-004	0.00000E+000	...........
	28	7.25	-4.42192E-004	-6.58522E-004	0.00000E+000	...........
	29	7.5	-5.13082E-004	-7.26922E-004	0.00000E+000	...........
	30	7.75	-5.83228E-004	-7.92947E-004	0.00000E+000	...........
	31	8	-6.52331E-004	-8.56803E-004	0.00000E+000	...........
	32	8.25	-7.20141E-004	-9.22123E-004	0.00000E+000	...........
	33	8.5	-7.86573E-004	-9.84121E-004	0.00000E+000	...........
	34	8.75	-8.51697E-004	-1.04383E-003	0.00000E+000	...........
	35	9	-9.15454E-004	-1.10268E-003	0.00000E+000	...........
	36	9.25	-9.77599E-004	-1.15807E-003	0.00000E+000	...........
	37	9.5	-1.03793E-003	-1.21421E-003	0.00000E+000	...........
	38	9.75	-1.09650E-003	-1.27124E-003	0.00000E+000	...........
	39	10	-1.15377E-003	-1.32842E-003	0.00000E+000	...........
EOC	QUANT	-0.0011538	Open Circuit (V)
PSTATMODEL	IQUANT	48	Pstat Model
PSTATSECTION	LABEL	IFC1000-05175	Pstat Section
PSTATSERIALNO	LABEL	05175	Pstat Serial Number
CTRLMODE	IQUANT	1	Control Mode
IESTAB	IQUANT	0	I/E Stability
CASPEED	IQUANT	1	Control Amp Speed
CONVENTION	IQUANT	1	Current Convention
ICHRANGE	IQUANT	2	Ich Range
ICHRANGEMODE	TOGGLE	F	Ich Auto Range
ICHOFFSETENABLE	TOGGLE	T	Ich Offset Enable
ICHOFFSET	QUANT	0	Ich Offset (V)
ICHFILTER	IQUANT	4	Ich Filter
VCHRANGE	IQUANT	2	Vch Range
VCHRANGEMODE	TOGGLE	F	Vch Auto Range
VCHOFFSETENABLE	TOGGLE	T	Vch Offset Enable
VCHOFFSET	QUANT	0	Vch Offset (V)
VCHFILTER	IQUANT	4	Vch Filter
IERANGELOWERLIMIT	IQUANT	4	I/E Range Lower Limit
IERANGEMODE	TOGGLE	F	I/E AutoRange
IERANGE	IQUANT	8	I/E Range
ACHSELECT	IQUANT	4	Ach Select
CABLEID	IQUANT	14	Cable ID
DCCALDATE	LABEL	27.2.2015	DC Calibration Date
ACCALDATE	LABEL	27.2.2015	AC Calibration Date
FRAMEWORKVERSION	QUANT	6.2	Framework Version
INSTRUMENTVERSION	LABEL	3.20	Instrument Version
ZCURVE	TABLE
	Pt	Time	Freq	Zreal	Zimag	Zsig	Zmod	Zphz	Idc	Vdc	IERange
	#	s	Hz	ohm	ohm	V	ohm	°	A	V	#
	0	1	1000020	35.57588	4.178914	1	35.82048	6.699536	6.069948E-006	-0.0004419	10
	1	2	794355.5	35.54014	3.176975	1	35.68185	5.10816	5.7997E-006	-0.0004303	10
	2	3	630996.1	35.5342	2.367201	1	35.61296	3.811273	5.33967E-006	-0.0007069	10
	3	5	501269.5	35.55832	1.686646	1	35.5983	2.715688	5.538637E-006	-0.0008595	10
	4	6	398144.5	35.60617	1.108258	1	35.62341	1.782781	5.375224E-006	-0.0009377	10
	5	7	316230.5	35.67891	0.6074368	1	35.68407	0.975372	5.448294E-006	-0.0010028	10
	6	9	251191.4	35.77259	0.1700191	1	35.77299	0.272312	5.410007E-006	-0.0010343	10
	7	10	199628.9	35.87335	-0.226271	1	35.87406	-0.361388	5.467056E-006	-0.0010655	10
	8	12	158496.1	35.99746	-0.598528	1	36.00243	-0.952566	5.332893E-006	-0.0010801	10
	9	13	125918	36.13665	-0.958548	1	36.14936	-1.519451	5.472211E-006	-0.0010915	10
	10	14	100019.5	36.29521	-1.320952	1	36.31924	-2.084341	3.923151E-007	-0.0012656	10
	11	16	79511.72	36.52425	-1.626563	1	36.56045	-2.549913	3.800872E-007	-0.0012704	10
	12	17	63105.47	36.66872	-2.125789	1	36.73029	-3.317883	3.176405E-007	-0.0012747	10
	13	18	50214.84	36.92052	-2.579444	1	37.01051	-3.996464	3.792614E-007	-0.0012775	10
	14	20	39902.34	37.21614	-3.083891	1	37.34369	-4.736955	3.790418E-007	-0.0012764	10
	15	21	31699.22	37.56438	-3.647642	1	37.74107	-5.546246	4.033732E-007	-0.0012803	10
	16	22	25136.72	37.97234	-4.285821	1	38.21343	-6.439548	5.032971E-007	-0.0012795	10
	17	24	19980.47	38.44035	-4.9978	1	38.76388	-7.407725	4.407079E-007	-0.0012816	10
	18	25	15878.91	38.97844	-5.804743	1	39.40829	-8.470345	4.786759E-007	-0.00128	10
	19	26	12597.66	39.59985	-6.734203	1	40.16837	-9.65118	4.799722E-007	-0.0012808	10
	20	28	10019.53	40.30539	-7.785705	1	41.05048	-10.93304	5.469896E-007	-0.0012823	10
	21	29	7928.241	41.1319	-9.025043	1	42.11039	-12.37556	6.74145E-007	-0.0012643	10
	22	30	6307.871	42.05778	-10.4204	1	43.32946	-13.9156	7.05885E-007	-0.0012645	10
	23	32	5034.722	43.10943	-12.00845	1	44.75071	-15.56557	1.357584E-006	-0.0012588	10
	24	33	3993.056	44.35455	-13.89359	1	46.47965	-17.39261	1.427368E-006	-0.0012561	10
	25	34	3144.055	45.85204	-16.15235	1	48.61386	-19.40589	1.477871E-006	-0.0012577	10
	26	35	2519.531	47.46602	-18.56542	1	50.96761	-21.362	1.445153E-006	-0.0012574	10
	27	37	2000.762	49.41688	-21.45138	1	53.87197	-23.46519	1.471721E-006	-0.0012588	10
	28	38	1580.669	51.75244	-24.83998	1	57.40505	-25.63993	1.527078E-006	-0.0012555	10
	29	39	1253.634	54.43736	-28.65869	1	61.52029	-27.76468	1.588196E-006	-0.0012576	10
	30	41	1000.702	57.48474	-32.89774	1	66.23259	-29.78192	1.644519E-006	-0.0012567	10
	31	42	790.0281	61.19271	-37.94445	1	72.00228	-31.80227	1.759775E-006	-0.001257	10
	32	43	628.811	65.34241	-43.47248	1	78.4824	-33.63593	1.814817E-006	-0.0012576	10
	33	44	502.2321	70.04185	-49.62079	1	85.83754	-35.31547	1.853885E-006	-0.0012525	10
	34	46	400.1524	75.42326	-56.54218	1	94.26392	-36.85762	1.909167E-006	-0.0012558	10
	35	47	315.5048	81.95759	-64.90617	1	104.546	-38.3774	1.905288E-006	-0.0012522	10
	36	48	252.0161	89.01053	-73.88561	1	115.6804	-39.69529	1.812045E-006	-0.0012541	10
	37	49	200.3205	97.1753	-84.23909	1	128.6051	-40.92127	1.759346E-006	-0.0012559	10
	38	51	158.0056	106.8149	-96.444	1	143.9127	-42.07914	1.829922E-006	-0.0012535	10
	39	52	125.558	117.5561	-110.0197	1	161.0086	-43.10329	1.776947E-006	-0.0012588	10
	40	53	99.734	129.7155	-125.4085	1	180.4256	-44.03283	1.629717E-006	-0.0012527	10
	41	55	79.44915	143.6616	-143.0392	1	202.7286	-44.87562	-5.147881E-007	-0.001275	10
	42	56	63.34459	159.3932	-162.9224	1	227.9252	-45.62734	-2.722907E-007	-0.0012811	10
	43	57	49.86702	178.2442	-186.53	1	258.0008	-46.30124	-9.171096E-008	-0.0012795	10
	44	58	38.42213	202.0854	-216.0922	1	295.8621	-46.91839	-2.652146E-008	-0.0012838	10
	45	60	31.25	223.9228	-242.7843	1	330.2812	-47.3143	8.504112E-008	-0.0012765	10
	46	61	24.93351	249.9669	-275.5128	1	372.009	-47.78321	-6.079731E-007	-0.0012763	9
	47	62	20.03205	279.5453	-311.4986	1	418.5414	-48.09454	-5.561596E-007	-0.0012812	9
	48	64	15.625	318.1474	-357.981	1	478.924	-48.37164	-4.665535E-007	-0.0012763	9
	49	65	12.46675	358.82	-405.9356	1	541.7892	-48.52546	-4.016981E-007	-0.0012801	9
	50	67	9.9734	404.9393	-459.1127	1	612.1767	-48.58758	-3.764715E-007	-0.0012799	9
	51	69	7.971939	458.4862	-519.0038	1	692.5132	-48.54273	-3.559853E-007	-0.0012802	9
	52	70	6.351626	521.0335	-586.5732	1	784.5661	-48.38638	-3.87845E-007	-0.0012803	9
	53	72	5.013369	597.1036	-664.9933	1	893.7275	-48.07904	-3.431396E-007	-0.001279	9
	54	75	3.985969	682.5829	-748.6749	1	1013.131	-47.6439	-3.140951E-007	-0.0012801	9
	55	77	3.175813	780.511	-839.0449	1	1145.947	-47.06988	-3.459038E-007	-0.0012805	9
	56	80	2.516103	897.9548	-938.6118	1	1298.967	-46.26818	-3.624457E-007	-0.0012771	9
	57	83	1.99553	1027.493	-1039.54	1	1461.638	-45.33391	-3.675686E-007	-0.001275	9
	58	86	1.587906	1178.014	-1153.48	1	1648.706	-44.39713	-2.95518E-007	-0.0012775	9
	59	91	1.258052	1346.845	-1271.29	1	1852.072	-43.347	-1.85222E-007	-0.0012785	9
	60	98	0.997765	1539.931	-1390.713	1	2074.963	-42.08521	-2.511574E-007	-0.0012777	9
	61	104	0.7927448	1753.22	-1509.717	1	2313.661	-40.73211	-2.437305E-007	-0.0012775	9
	62	112	0.6290258	1989.227	-1627.597	1	2570.232	-39.29023	-2.283202E-007	-0.0012768	9
	63	121	0.4988825	2246.231	-1741.572	1	2842.292	-37.78752	-2.478689E-007	-0.0012771	9
	64	132	0.3985969	2513.776	-1847.464	1	3119.646	-36.3135	-2.405103E-007	-0.0012792	9
	65	146	0.316723	2804.415	-1949.53	1	3415.466	-34.80566	-1.611615E-007	-0.00128	8
	66	163	0.2514753	3105.272	-2039.517	1	3715.15	-33.29657	-5.704754E-008	-0.0012795	8
	67	184	0.1999787	3413.405	-2125.537	1	4021.1	-31.91064	1.944272E-008	-0.0012792	8
	68	210	0.1587906	3728.597	-2219.699	1	4339.297	-30.76608	1.266205E-007	-0.0012788	8
	69	242	0.1260081	4056.357	-2333.192	1	4679.51	-29.90725	1.857429E-007	-0.00128	8
	70	280	0.1001603	4433.948	-2443.323	1	5062.58	-28.85692	7.1222E-008	-0.0012803	8
