EXPLAIN
TAG	EISPOT
TITLE	LABEL	Potentiostatic EIS	Test &Identifier
DATE	LABEL	7/8/2016	Date
TIME	LABEL	13:54:17	Time
NOTES	NOTES	1	&Notes...
	
PSTAT	PSTAT	IFC1000-05175	Potentiostat
VDC	POTEN	0.00000E+000	T	DC &Voltage (V)
FREQINIT	QUANT	1.00000E+006	Initial Fre&q. (Hz)
FREQFINAL	QUANT	1.00000E+000	Final Fre&q. (Hz)
PTSPERDEC	QUANT	1.00000E+001	Points/&decade
VAC	QUANT	1.00000E+002	AC &Voltage (mV rms)
AREA	QUANT	0.00000E+000	&Area (cm^2)
CONDIT	TWOPARAM	F	1.50000E+001	0.00000E+000	Conditionin&g	Time(s)	E(V)
DELAY	TWOPARAM	F	6.00000E+001	0.00000E+000	Init. De&lay	Time(s)	Stab.(mV/s)
SPEED	SELECTOR	0	&Optimize for:
ZGUESS	QUANT	1.00000E+002	E&stimated Z (ohms)
OCVCURVE	TABLE	40
	Pt	T	Vf	Vm	Ach	Over
	#	s	V vs. Ref.	V	V	bits
	0	0.25	9.07644E-006	9.07644E-006	0.00000E+000	...........
	1	0.5	9.43286E-006	2.77339E-005	0.00000E+000	...........
	2	0.75	1.16600E-005	4.74349E-005	0.00000E+000	...........
	3	1	1.81484E-005	6.94786E-005	0.00000E+000	...........
	4	1.25	3.02855E-005	9.16301E-005	0.00000E+000	...........
	5	1.5	4.74446E-005	1.15564E-004	0.00000E+000	...........
	6	1.75	6.79933E-005	1.41080E-004	0.00000E+000	...........
	7	2	9.06171E-005	1.68087E-004	0.00000E+000	...........
	8	2.25	1.14685E-004	1.94291E-004	0.00000E+000	...........
	9	2.5	1.39950E-004	2.24502E-004	0.00000E+000	...........
	10	2.75	1.66310E-004	2.52520E-004	0.00000E+000	...........
	11	3	1.93693E-004	2.82207E-004	0.00000E+000	...........
	12	3.25	2.21924E-004	3.11643E-004	0.00000E+000	...........
	13	3.5	2.50780E-004	3.42869E-004	0.00000E+000	...........
	14	3.75	2.80179E-004	3.74094E-004	0.00000E+000	...........
	15	4	3.10208E-004	4.07729E-004	0.00000E+000	...........
	16	4.25	3.41058E-004	4.42185E-004	0.00000E+000	...........
	17	4.5	3.72927E-004	4.76440E-004	0.00000E+000	...........
	18	4.75	4.05813E-004	5.09469E-004	0.00000E+000	...........
	19	5	4.39426E-004	5.45383E-004	0.00000E+000	...........
	20	5.25	4.73494E-004	5.81810E-004	0.00000E+000	...........
	21	5.5	5.08021E-004	6.16310E-004	0.00000E+000	...........
	22	5.75	5.43045E-004	6.52329E-004	0.00000E+000	...........
	23	6	5.78452E-004	6.90327E-004	0.00000E+000	...........
	24	6.25	6.14240E-004	7.27769E-004	0.00000E+000	...........
	25	6.5	6.50570E-004	7.65027E-004	0.00000E+000	...........
	26	6.75	6.87466E-004	8.02749E-004	0.00000E+000	...........
	27	7	7.24769E-004	8.41428E-004	0.00000E+000	...........
	28	7.25	7.62381E-004	8.80257E-004	0.00000E+000	...........
	29	7.5	8.00337E-004	9.19131E-004	0.00000E+000	...........
	30	7.75	8.38694E-004	9.59587E-004	0.00000E+000	...........
	31	8	8.75912E-004	9.16627E-004	0.00000E+000	...........
	32	8.25	9.06377E-004	9.25909E-004	0.00000E+000	...........
	33	8.5	9.25071E-004	9.83606E-004	0.00000E+000	...........
	34	8.75	9.37155E-004	1.03495E-003	0.00000E+000	...........
	35	9	9.55268E-004	1.08255E-003	0.00000E+000	...........
	36	9.25	9.86582E-004	1.12736E-003	0.00000E+000	...........
	37	9.5	1.02856E-003	1.17100E-003	0.00000E+000	...........
	38	9.75	1.07502E-003	1.21480E-003	0.00000E+000	...........
	39	10	1.12167E-003	1.25851E-003	0.00000E+000	...........
EOC	QUANT	0.0011217	Open Circuit (V)
PSTATMODEL	IQUANT	48	Pstat Model
PSTATSECTION	LABEL	IFC1000-05175	Pstat Section
PSTATSERIALNO	LABEL	05175	Pstat Serial Number
CTRLMODE	IQUANT	1	Control Mode
IESTAB	IQUANT	0	I/E Stability
CASPEED	IQUANT	1	Control Amp Speed
CONVENTION	IQUANT	1	Current Convention
ICHRANGE	IQUANT	2	Ich Range
ICHRANGEMODE	TOGGLE	F	Ich Auto Range
ICHOFFSETENABLE	TOGGLE	T	Ich Offset Enable
ICHOFFSET	QUANT	0	Ich Offset (V)
ICHFILTER	IQUANT	4	Ich Filter
VCHRANGE	IQUANT	2	Vch Range
VCHRANGEMODE	TOGGLE	F	Vch Auto Range
VCHOFFSETENABLE	TOGGLE	T	Vch Offset Enable
VCHOFFSET	QUANT	0	Vch Offset (V)
VCHFILTER	IQUANT	4	Vch Filter
IERANGELOWERLIMIT	IQUANT	4	I/E Range Lower Limit
IERANGEMODE	TOGGLE	F	I/E AutoRange
IERANGE	IQUANT	8	I/E Range
ACHSELECT	IQUANT	4	Ach Select
CABLEID	IQUANT	14	Cable ID
DCCALDATE	LABEL	27.2.2015	DC Calibration Date
ACCALDATE	LABEL	27.2.2015	AC Calibration Date
FRAMEWORKVERSION	QUANT	6.2	Framework Version
INSTRUMENTVERSION	LABEL	3.20	Instrument Version
ZCURVE	TABLE
	Pt	Time	Freq	Zreal	Zimag	Zsig	Zmod	Zphz	Idc	Vdc	IERange
	#	s	Hz	ohm	ohm	V	ohm	°	A	V	#
	0	1	1000020	221.4033	1.396669	1	221.4077	0.3614319	6.941423E-007	0.0014842	10
	1	1	794355.5	221.2966	0.5351778	1	221.2972	0.1385623	6.015163E-007	0.0015568	10
	2	1	630996.1	221.3165	-0.1044779	1	221.3165	-0.0270479	4.134451E-007	0.0014098	10
	3	2	501269.5	221.4116	-0.6990767	1	221.4127	-0.1809029	3.824329E-007	0.0013274	10
	4	2	398144.5	221.5609	-1.252396	1	221.5644	-0.3238668	3.214828E-007	0.0012716	10
	5	2	316230.5	221.7813	-1.746848	1	221.7882	-0.4512776	3.00372E-007	0.0012386	10
	6	2	251191.4	222.0149	-2.235314	1	222.0261	-0.5768521	2.525674E-007	0.0012107	10
	7	3	199628.9	222.1813	-2.797723	1	222.1989	-0.7214345	2.085455E-007	0.0011993	10
	8	3	158496.1	222.3604	-3.371607	1	222.386	-0.8686978	2.265702E-007	0.0011485	10
	9	3	125918	222.5571	-4.092864	1	222.5947	-1.05356	1.42163E-007	0.00114	10
	10	3	100019.5	222.7309	-4.99015	1	222.7868	-1.283463	-1.190631E-006	0.0009285	10
	11	4	79511.72	223.1913	-5.687331	1	223.2638	-1.459687	-1.180274E-006	0.0009278	10
	12	4	63105.47	222.9746	-7.598279	1	223.104	-1.951706	-1.244806E-006	0.000924	10
	13	4	50214.84	223.3023	-9.388942	1	223.4996	-2.407634	-1.28331E-006	0.0009213	10
	14	4	39902.34	223.7016	-11.58199	1	224.0012	-2.963802	-1.23941E-006	0.0009197	10
	15	5	31699.22	224.2661	-14.24668	1	224.7181	-3.634876	-1.226848E-006	0.0009183	10
	16	5	25136.72	224.9943	-17.50149	1	225.674	-4.447872	-1.244525E-006	0.0009224	10
	17	5	19980.47	225.8667	-21.38262	1	226.8765	-5.408029	-1.240705E-006	0.0009211	10
	18	5	15878.91	226.9937	-26.10483	1	228.4898	-6.560335	-1.272823E-006	0.0009229	10
	19	6	12597.66	228.358	-31.86304	1	230.5703	-7.943257	-1.310117E-006	0.0009158	10
	20	6	10019.53	230.0157	-38.79175	1	233.2639	-9.57275	-1.312964E-006	0.0009197	10
	21	6	7928.241	232.1445	-47.4407	1	236.9424	-11.54985	-1.440068E-006	0.0009287	10
	22	6	6307.871	234.717	-57.69316	1	241.7035	-13.80947	-1.453149E-006	0.0009301	10
	23	7	5034.722	237.9098	-69.95546	1	247.9815	-16.38555	-1.153528E-006	0.0009515	10
	24	7	3993.056	242.0277	-85.22736	1	256.5952	-19.39915	-1.141367E-006	0.0009545	10
	25	7	3144.055	247.412	-104.3905	1	268.5332	-22.87634	-1.143765E-006	0.000953	10
	26	7	2519.531	253.733	-125.8555	1	283.2314	-26.38213	-1.151923E-006	0.0009522	10
	27	7	2000.762	262.0664	-152.7757	1	303.3467	-30.24072	-1.168822E-006	0.0009517	10
	28	8	1580.669	272.6825	-185.753	1	329.9393	-34.26293	-2.130796E-007	0.0009515	9
	29	8	1253.634	286.6574	-225.2147	1	364.5465	-38.15524	-2.083932E-007	0.0009529	9
	30	8	1000.702	304.3754	-271.1433	1	407.6311	-41.69525	-2.044471E-007	0.0009536	9
	31	8	790.0281	328.8616	-328.6089	1	464.9019	-44.97797	-2.204838E-007	0.0009555	9
	32	9	628.811	360.2265	-394.2503	1	534.0379	-47.58205	-2.198368E-007	0.0009506	9
	33	9	502.2321	400.9969	-469.5161	1	617.4495	-49.50054	-2.108646E-007	0.0009565	9
	34	9	400.1524	455.1706	-556.4728	1	718.9175	-50.71832	-2.309283E-007	0.0009549	9
	35	9	315.5048	529.856	-659.2574	1	845.7941	-51.21059	-2.274208E-007	0.0009563	9
	36	9	252.0161	621.418	-765.4127	1	985.909	-50.92778	-2.53425E-007	0.0009555	9
	37	10	200.3205	739.9202	-879.3303	1	1149.219	-49.92077	-2.66562E-007	0.0009541	9
	38	10	158.0056	891.9944	-997.252	1	1337.971	-48.18888	-2.545994E-007	0.0009569	9
	39	10	125.558	1069.028	-1104.315	1	1536.988	-45.93018	-2.927399E-007	0.0009517	9
	40	10	99.734	1274.411	-1197.343	1	1748.643	-43.21414	-2.546224E-007	0.0009548	9
	41	11	79.44915	1496.852	-1267.177	1	1961.199	-40.24995	-4.811399E-007	0.0009324	9
	42	11	63.34459	1732.978	-1310.326	1	2172.594	-37.09337	-4.723699E-007	0.0009356	9
	43	11	49.86702	1987.252	-1325.256	1	2388.613	-33.69848	-4.673594E-007	0.0009337	9
	44	11	38.42213	2259.534	-1307.643	1	2610.637	-30.05894	-4.812376E-007	0.0009283	9
	45	12	31.25	2466.649	-1271.549	1	2775.103	-27.27095	-4.651662E-007	0.0009323	9
	46	12	24.93351	2669.87	-1224.972	1	2937.475	-24.64629	-4.924653E-007	0.0009383	9
	47	12	20.03205	2853.989	-1165.276	1	3082.713	-22.21007	-5.147439E-007	0.0009302	9
	48	13	15.625	3038.972	-1092.97	1	3229.541	-19.78119	-5.50666E-007	0.0009302	8
	49	13	12.46675	3191.638	-1026.552	1	3352.665	-17.82977	-5.534558E-007	0.0009333	8
	50	13	9.9734	3327.293	-963.319	1	3463.938	-16.14681	-5.536605E-007	0.0009343	8
	51	14	7.971939	3450.312	-904.2552	1	3566.838	-14.68575	-5.606896E-007	0.0009322	8
	52	15	6.351626	3563.497	-850.2523	1	3663.528	-13.4199	-5.730287E-007	0.0009311	8
	53	15	5.013369	3671.12	-801.2139	1	3757.535	-12.31162	-5.838122E-007	0.0009327	8
	54	16	3.985969	3766.945	-760.9903	1	3843.043	-11.42106	-5.879131E-007	0.0009336	8
	55	17	3.175813	3855.477	-728.3466	1	3923.67	-10.6978	-6.054971E-007	0.0009308	8
	56	19	2.516103	3941.374	-700.2155	1	4003.09	-10.07393	-6.364866E-007	0.0009345	8
	57	20	1.99553	4022.002	-682.0278	1	4079.419	-9.62433	-6.64496E-007	0.0009357	8
	58	23	1.587906	4098.909	-670.5902	1	4153.402	-9.291397	-6.862765E-007	0.000933	8
	59	25	1.258052	4175.267	-665.3438	1	4227.947	-9.054161	-7.243467E-007	0.0009346	8
	60	29	0.997765	4252.13	-666.4604	1	4304.042	-8.907821	-7.879589E-007	0.0009348	8
