EXPLAIN
TAG	EISPOT
TITLE	LABEL	Potentiostatic EIS	Test &Identifier
DATE	LABEL	7/8/2016	Date
TIME	LABEL	13:53:16	Time
NOTES	NOTES	1	&Notes...
	
PSTAT	PSTAT	IFC1000-05175	Potentiostat
VDC	POTEN	0.00000E+000	T	DC &Voltage (V)
FREQINIT	QUANT	1.00000E+006	Initial Fre&q. (Hz)
FREQFINAL	QUANT	1.00000E+000	Final Fre&q. (Hz)
PTSPERDEC	QUANT	1.00000E+001	Points/&decade
VAC	QUANT	1.00000E+002	AC &Voltage (mV rms)
AREA	QUANT	0.00000E+000	&Area (cm^2)
CONDIT	TWOPARAM	F	1.50000E+001	0.00000E+000	Conditionin&g	Time(s)	E(V)
DELAY	TWOPARAM	F	6.00000E+001	0.00000E+000	Init. De&lay	Time(s)	Stab.(mV/s)
SPEED	SELECTOR	0	&Optimize for:
ZGUESS	QUANT	1.00000E+002	E&stimated Z (ohms)
OCVCURVE	TABLE	40
	Pt	T	Vf	Vm	Ach	Over
	#	s	V vs. Ref.	V	V	bits
	0	0.25	1.36767E-002	1.36767E-002	0.00000E+000	...........
	1	0.5	1.36765E-002	1.36656E-002	0.00000E+000	...........
	2	0.75	1.36752E-002	1.36544E-002	0.00000E+000	...........
	3	1	1.36714E-002	1.36450E-002	0.00000E+000	...........
	4	1.25	1.36647E-002	1.36338E-002	0.00000E+000	...........
	5	1.5	1.36557E-002	1.36223E-002	0.00000E+000	...........
	6	1.75	1.36454E-002	1.36101E-002	0.00000E+000	...........
	7	2	1.36343E-002	1.35956E-002	0.00000E+000	...........
	8	2.25	1.36225E-002	1.35808E-002	0.00000E+000	...........
	9	2.5	1.36098E-002	1.35679E-002	0.00000E+000	...........
	10	2.75	1.35965E-002	1.35550E-002	0.00000E+000	...........
	11	3	1.35828E-002	1.35422E-002	0.00000E+000	...........
	12	3.25	1.35693E-002	1.35289E-002	0.00000E+000	...........
	13	3.5	1.35561E-002	1.35162E-002	0.00000E+000	...........
	14	3.75	1.35430E-002	1.35039E-002	0.00000E+000	...........
	15	4	1.35302E-002	1.34934E-002	0.00000E+000	...........
	16	4.25	1.35177E-002	1.34828E-002	0.00000E+000	...........
	17	4.5	1.35057E-002	1.34703E-002	0.00000E+000	...........
	18	4.75	1.34943E-002	1.34594E-002	0.00000E+000	...........
	19	5	1.34829E-002	1.34483E-002	0.00000E+000	...........
	20	5.25	1.34716E-002	1.34377E-002	0.00000E+000	...........
	21	5.5	1.34604E-002	1.34273E-002	0.00000E+000	...........
	22	5.75	1.34494E-002	1.34156E-002	0.00000E+000	...........
	23	6	1.34385E-002	1.34037E-002	0.00000E+000	...........
	24	6.25	1.34275E-002	1.33907E-002	0.00000E+000	...........
	25	6.5	1.34160E-002	1.33782E-002	0.00000E+000	...........
	26	6.75	1.34041E-002	1.33655E-002	0.00000E+000	...........
	27	7	1.33918E-002	1.33536E-002	0.00000E+000	...........
	28	7.25	1.33793E-002	1.33418E-002	0.00000E+000	...........
	29	7.5	1.33669E-002	1.33292E-002	0.00000E+000	...........
	30	7.75	1.33546E-002	1.33180E-002	0.00000E+000	...........
	31	8	1.33426E-002	1.33076E-002	0.00000E+000	...........
	32	8.25	1.33308E-002	1.32969E-002	0.00000E+000	...........
	33	8.5	1.33194E-002	1.32872E-002	0.00000E+000	...........
	34	8.75	1.33086E-002	1.32774E-002	0.00000E+000	...........
	35	9	1.32981E-002	1.32668E-002	0.00000E+000	...........
	36	9.25	1.32879E-002	1.32565E-002	0.00000E+000	...........
	37	9.5	1.32778E-002	1.32473E-002	0.00000E+000	...........
	38	9.75	1.32677E-002	1.32381E-002	0.00000E+000	...........
	39	10	1.32579E-002	1.32292E-002	0.00000E+000	...........
EOC	QUANT	0.0132579	Open Circuit (V)
PSTATMODEL	IQUANT	48	Pstat Model
PSTATSECTION	LABEL	IFC1000-05175	Pstat Section
PSTATSERIALNO	LABEL	05175	Pstat Serial Number
CTRLMODE	IQUANT	1	Control Mode
IESTAB	IQUANT	0	I/E Stability
CASPEED	IQUANT	1	Control Amp Speed
CONVENTION	IQUANT	1	Current Convention
ICHRANGE	IQUANT	2	Ich Range
ICHRANGEMODE	TOGGLE	F	Ich Auto Range
ICHOFFSETENABLE	TOGGLE	T	Ich Offset Enable
ICHOFFSET	QUANT	0	Ich Offset (V)
ICHFILTER	IQUANT	4	Ich Filter
VCHRANGE	IQUANT	2	Vch Range
VCHRANGEMODE	TOGGLE	F	Vch Auto Range
VCHOFFSETENABLE	TOGGLE	T	Vch Offset Enable
VCHOFFSET	QUANT	0	Vch Offset (V)
VCHFILTER	IQUANT	4	Vch Filter
IERANGELOWERLIMIT	IQUANT	4	I/E Range Lower Limit
IERANGEMODE	TOGGLE	F	I/E AutoRange
IERANGE	IQUANT	9	I/E Range
ACHSELECT	IQUANT	4	Ach Select
CABLEID	IQUANT	14	Cable ID
DCCALDATE	LABEL	27.2.2015	DC Calibration Date
ACCALDATE	LABEL	27.2.2015	AC Calibration Date
FRAMEWORKVERSION	QUANT	6.2	Framework Version
INSTRUMENTVERSION	LABEL	3.20	Instrument Version
ZCURVE	TABLE
	Pt	Time	Freq	Zreal	Zimag	Zsig	Zmod	Zphz	Idc	Vdc	IERange
	#	s	Hz	ohm	ohm	V	ohm	°	A	V	#
	0	1	1000020	215.0557	1.950588	1	215.0646	0.5196672	1.260997E-006	0.0137917	10
	1	1	794355.5	214.9597	1.030358	1	214.9621	0.2746315	1.171077E-006	0.013842	10
	2	1	630996.1	214.9751	0.3123836	1	214.9754	0.0832573	1.07638E-006	0.0136735	10
	3	2	501269.5	215.0484	-0.3139869	1	215.0486	-0.0836561	9.594523E-007	0.0135842	10
	4	2	398144.5	215.1958	-0.9004562	1	215.1976	-0.2397447	9.523343E-007	0.0135316	10
	5	2	316230.5	215.39	-1.428509	1	215.3947	-0.3799914	9.730812E-007	0.0134983	10
	6	2	251191.4	215.6216	-1.934091	1	215.6303	-0.51392	1.018479E-006	0.0134578	10
	7	2	199628.9	215.7623	-2.477229	1	215.7766	-0.6578003	1.00531E-006	0.0134496	10
	8	3	158496.1	215.9556	-3.072327	1	215.9775	-0.8150724	8.786568E-007	0.0133959	10
	9	3	125918	216.0959	-3.776255	1	216.1289	-1.001136	8.69399E-007	0.013389	10
	10	3	100019.5	216.2486	-4.637507	1	216.2983	-1.228535	-4.199708E-007	0.0131716	10
	11	3	79511.72	216.6792	-5.308877	1	216.7442	-1.403529	-4.976704E-007	0.0131682	10
	12	4	63105.47	216.4364	-7.172737	1	216.5552	-1.898097	-5.151445E-007	0.0131644	10
	13	4	50214.84	216.726	-8.874772	1	216.9076	-2.34491	-4.791037E-007	0.0131626	10
	14	4	39902.34	217.0927	-11.00143	1	217.3713	-2.90105	-5.205965E-007	0.0131626	10
	15	4	31699.22	217.594	-13.57124	1	218.0168	-3.568889	-4.97709E-007	0.0131612	10
	16	5	25136.72	218.2298	-16.71175	1	218.8688	-4.379087	-4.983735E-007	0.0131621	10
	17	5	19980.47	219.0471	-20.47925	1	220.0023	-5.341196	-4.8005E-007	0.0131632	10
	18	5	15878.91	220.0474	-25.05754	1	221.4695	-6.49648	-4.618668E-007	0.01316	10
	19	5	12597.66	221.2971	-30.68477	1	223.4143	-7.894224	-4.831688E-007	0.0131604	10
	20	6	10019.53	222.8407	-37.44491	1	225.9649	-9.53855	-4.451581E-007	0.0131604	10
	21	6	7928.241	224.8143	-45.87078	1	229.4463	-11.53225	-5.034331E-007	0.0131751	10
	22	6	6307.871	227.2325	-55.90252	1	234.0079	-13.82113	-5.35021E-007	0.0131737	10
	23	6	5034.722	230.222	-67.89568	1	240.0249	-16.43153	-3.011245E-007	0.0131967	10
	24	7	3993.056	234.0857	-82.84129	1	248.3119	-19.48851	-2.358029E-007	0.0131974	10
	25	7	3144.055	239.1362	-101.6454	1	259.8421	-23.02803	-2.570384E-007	0.0131954	10
	26	7	2519.531	245.0794	-122.7607	1	274.106	-26.60637	-2.817127E-007	0.0131939	10
	27	7	2000.762	252.9596	-149.3232	1	293.7448	-30.55356	-2.925881E-007	0.0131947	10
	28	7	1580.669	263.4162	-182.2896	1	320.3398	-34.68406	-2.661706E-007	0.013196	10
	29	8	1253.634	276.5688	-221.1417	1	354.1101	-38.64549	4.783926E-008	0.0131953	9
	30	8	1000.702	293.8683	-266.7885	1	396.9063	-42.23475	6.71974E-008	0.0131945	9
	31	8	790.0281	318.0314	-323.8856	1	453.9227	-45.52252	6.403742E-008	0.013196	9
	32	8	628.811	349.2414	-389.0273	1	522.7923	-48.08473	6.993103E-008	0.013197	9
	33	9	502.2321	390.0646	-463.5768	1	605.8497	-49.92194	8.427828E-008	0.0131993	9
	34	9	400.1524	444.4235	-549.2679	1	706.5461	-51.02299	5.545988E-008	0.013196	9
	35	9	315.5048	519.3826	-650.0134	1	832.0311	-51.37397	9.190671E-008	0.0131976	9
	36	9	252.0161	611.0109	-753.298	1	969.944	-50.95399	6.811518E-008	0.0131985	9
	37	10	200.3205	728.9444	-863.2215	1	1129.828	-49.8207	5.047232E-008	0.0131969	9
	38	10	158.0056	879.1796	-975.731	1	1313.396	-47.97967	7.86444E-008	0.0131992	9
	39	10	125.558	1052.132	-1076.765	1	1505.458	-45.66295	4.657129E-008	0.0131979	9
	40	10	99.734	1250.747	-1163.73	1	1708.401	-42.93599	7.446005E-008	0.0132002	9
	41	10	79.44915	1463.71	-1229.262	1	1911.422	-40.02443	-1.806977E-007	0.0131803	9
	42	11	63.34459	1687.603	-1270.922	1	2112.64	-36.98314	-1.778944E-007	0.0131742	9
	43	11	49.86702	1927.197	-1288.923	1	2318.493	-33.77488	-1.612599E-007	0.0131713	9
	44	11	38.42213	2184.29	-1281.272	1	2532.347	-30.39525	-1.795758E-007	0.0131705	9
	45	11	31.25	2382.247	-1257.651	1	2693.842	-27.83075	-1.548541E-007	0.0131799	9
	46	12	24.93351	2579.726	-1228.013	1	2857.097	-25.45559	-1.709358E-007	0.0131785	9
	47	12	20.03205	2763.667	-1186.459	1	3007.581	-23.23414	-2.012059E-007	0.0131751	9
	48	12	15.625	2954.658	-1134.474	1	3164.97	-21.00484	-2.0394E-007	0.0131726	8
	49	13	12.46675	3117.671	-1084.677	1	3300.969	-19.18343	-1.867778E-007	0.0131751	8
	50	13	9.9734	3266.851	-1035.095	1	3426.914	-17.5807	-1.709537E-007	0.0131758	8
	51	14	7.971939	3405.972	-986.717	1	3546.019	-16.15641	-1.696679E-007	0.0131725	8
	52	14	6.351626	3536.535	-940.6021	1	3659.483	-14.89399	-1.775831E-007	0.0131738	8
	53	15	5.013369	3662.32	-897.1342	1	3770.602	-13.76432	-1.801521E-007	0.0131741	8
	54	16	3.985969	3775.185	-860.334	1	3871.975	-12.838	-1.699442E-007	0.0131748	8
	55	17	3.175813	3879.979	-829.9466	1	3967.751	-12.07389	-1.697805E-007	0.0131734	8
	56	19	2.516103	3982.132	-803.1267	1	4062.313	-11.4026	-1.829113E-007	0.0131776	8
	57	20	1.99553	4078.018	-786.4555	1	4153.161	-10.91562	-1.916564E-007	0.0131784	8
	58	23	1.587906	4169.794	-776.6927	1	4241.514	-10.55136	-1.765103E-007	0.0131774	8
	59	25	1.258052	4261.222	-773.2317	1	4330.809	-10.28485	-1.769741E-007	0.0131776	8
	60	29	0.997765	4353.383	-776.3193	1	4422.06	-10.11102	-2.055657E-007	0.0131772	8
