EXPLAIN
TAG	EISPOT
TITLE	LABEL	Potentiostatic EIS	Test &Identifier
DATE	LABEL	7/8/2016	Date
TIME	LABEL	13:48:23	Time
NOTES	NOTES	1	&Notes...
	
PSTAT	PSTAT	IFC1000-05175	Potentiostat
VDC	POTEN	0.00000E+000	T	DC &Voltage (V)
FREQINIT	QUANT	1.00000E+006	Initial Fre&q. (Hz)
FREQFINAL	QUANT	1.00000E+000	Final Fre&q. (Hz)
PTSPERDEC	QUANT	1.00000E+001	Points/&decade
VAC	QUANT	1.00000E+002	AC &Voltage (mV rms)
AREA	QUANT	0.00000E+000	&Area (cm^2)
CONDIT	TWOPARAM	F	1.50000E+001	0.00000E+000	Conditionin&g	Time(s)	E(V)
DELAY	TWOPARAM	F	6.00000E+001	0.00000E+000	Init. De&lay	Time(s)	Stab.(mV/s)
SPEED	SELECTOR	0	&Optimize for:
ZGUESS	QUANT	1.00000E+002	E&stimated Z (ohms)
OCVCURVE	TABLE	40
	Pt	T	Vf	Vm	Ach	Over
	#	s	V vs. Ref.	V	V	bits
	0	0.25	-3.14815E-003	-3.14815E-003	0.00000E+000	...........
	1	0.5	-3.14787E-003	-3.13349E-003	0.00000E+000	...........
	2	0.75	-3.14613E-003	-3.11833E-003	0.00000E+000	...........
	3	1	-3.14112E-003	-3.10402E-003	0.00000E+000	...........
	4	1.25	-3.13199E-003	-3.08899E-003	0.00000E+000	...........
	5	1.5	-3.11960E-003	-3.07528E-003	0.00000E+000	...........
	6	1.75	-3.10548E-003	-3.06014E-003	0.00000E+000	...........
	7	2	-3.09082E-003	-3.04566E-003	0.00000E+000	...........
	8	2.25	-3.07612E-003	-3.03195E-003	0.00000E+000	...........
	9	2.5	-3.06155E-003	-3.01813E-003	0.00000E+000	...........
	10	2.75	-3.04719E-003	-3.00378E-003	0.00000E+000	...........
	11	3	-3.03305E-003	-2.99015E-003	0.00000E+000	...........
	12	3.25	-3.01906E-003	-2.97801E-003	0.00000E+000	...........
	13	3.5	-3.00532E-003	-2.96563E-003	0.00000E+000	...........
	14	3.75	-2.99196E-003	-2.95194E-003	0.00000E+000	...........
	15	4	-2.97895E-003	-2.93918E-003	0.00000E+000	...........
	16	4.25	-2.96605E-003	-2.92616E-003	0.00000E+000	...........
	17	4.5	-2.95312E-003	-2.91241E-003	0.00000E+000	...........
	18	4.75	-2.94007E-003	-2.89943E-003	0.00000E+000	...........
	19	5	-2.92694E-003	-2.88776E-003	0.00000E+000	...........
	20	5.25	-2.91391E-003	-2.87684E-003	0.00000E+000	...........
	21	5.5	-2.90126E-003	-2.86404E-003	0.00000E+000	...........
	22	5.75	-2.88905E-003	-2.85303E-003	0.00000E+000	...........
	23	6	-2.87714E-003	-2.83979E-003	0.00000E+000	...........
	24	6.25	-2.86526E-003	-2.82852E-003	0.00000E+000	...........
	25	6.5	-2.85334E-003	-2.81768E-003	0.00000E+000	...........
	26	6.75	-2.84146E-003	-2.80574E-003	0.00000E+000	...........
	27	7	-2.82976E-003	-2.79485E-003	0.00000E+000	...........
	28	7.25	-2.81830E-003	-2.78505E-003	0.00000E+000	...........
	29	7.5	-2.80709E-003	-2.77364E-003	0.00000E+000	...........
	30	7.75	-2.79614E-003	-2.76299E-003	0.00000E+000	...........
	31	8	-2.78533E-003	-2.75119E-003	0.00000E+000	...........
	32	8.25	-2.77449E-003	-2.74125E-003	0.00000E+000	...........
	33	8.5	-2.76358E-003	-2.73041E-003	0.00000E+000	...........
	34	8.75	-2.75268E-003	-2.71867E-003	0.00000E+000	...........
	35	9	-2.74180E-003	-2.70821E-003	0.00000E+000	...........
	36	9.25	-2.73088E-003	-2.69685E-003	0.00000E+000	...........
	37	9.5	-2.71988E-003	-2.68587E-003	0.00000E+000	...........
	38	9.75	-2.70883E-003	-2.67398E-003	0.00000E+000	...........
	39	10	-2.69774E-003	-2.66541E-003	0.00000E+000	...........
EOC	QUANT	-0.0026977	Open Circuit (V)
PSTATMODEL	IQUANT	48	Pstat Model
PSTATSECTION	LABEL	IFC1000-05175	Pstat Section
PSTATSERIALNO	LABEL	05175	Pstat Serial Number
CTRLMODE	IQUANT	1	Control Mode
IESTAB	IQUANT	0	I/E Stability
CASPEED	IQUANT	1	Control Amp Speed
CONVENTION	IQUANT	1	Current Convention
ICHRANGE	IQUANT	2	Ich Range
ICHRANGEMODE	TOGGLE	F	Ich Auto Range
ICHOFFSETENABLE	TOGGLE	T	Ich Offset Enable
ICHOFFSET	QUANT	0	Ich Offset (V)
ICHFILTER	IQUANT	4	Ich Filter
VCHRANGE	IQUANT	2	Vch Range
VCHRANGEMODE	TOGGLE	F	Vch Auto Range
VCHOFFSETENABLE	TOGGLE	T	Vch Offset Enable
VCHOFFSET	QUANT	0	Vch Offset (V)
VCHFILTER	IQUANT	4	Vch Filter
IERANGELOWERLIMIT	IQUANT	4	I/E Range Lower Limit
IERANGEMODE	TOGGLE	F	I/E AutoRange
IERANGE	IQUANT	8	I/E Range
ACHSELECT	IQUANT	4	Ach Select
CABLEID	IQUANT	14	Cable ID
DCCALDATE	LABEL	27.2.2015	DC Calibration Date
ACCALDATE	LABEL	27.2.2015	AC Calibration Date
FRAMEWORKVERSION	QUANT	6.2	Framework Version
INSTRUMENTVERSION	LABEL	3.20	Instrument Version
ZCURVE	TABLE
	Pt	Time	Freq	Zreal	Zimag	Zsig	Zmod	Zphz	Idc	Vdc	IERange
	#	s	Hz	ohm	ohm	V	ohm	°	A	V	#
	0	1	1000020	217.5266	1.444465	1	217.5314	0.3804616	8.204738E-007	-0.0021454	10
	1	1	794355.5	217.4135	0.5802647	1	217.4143	0.1529189	7.571305E-007	-0.0020869	10
	2	1	630996.1	217.4458	-0.0854159	1	217.4458	-0.0225066	6.344216E-007	-0.002256	10
	3	2	501269.5	217.5536	-0.6913108	1	217.5547	-0.1820658	5.80407E-007	-0.002354	10
	4	2	398144.5	217.7145	-1.225384	1	217.7179	-0.3224802	4.729611E-007	-0.002407	10
	5	2	316230.5	217.9347	-1.727736	1	217.9416	-0.4542182	5.465899E-007	-0.0024489	10
	6	2	251191.4	218.178	-2.237842	1	218.1895	-0.5876597	4.830699E-007	-0.0024681	10
	7	3	199628.9	218.3503	-2.744256	1	218.3675	-0.7200634	5.446023E-007	-0.0024889	10
	8	3	158496.1	218.5639	-3.331695	1	218.5893	-0.8733248	4.285378E-007	-0.0025402	10
	9	3	125918	218.7314	-4.015231	1	218.7682	-1.051655	4.828676E-007	-0.0025477	10
	10	3	100019.5	218.9073	-4.899752	1	218.9622	-1.282224	-8.416444E-007	-0.0027641	10
	11	4	79511.72	219.3597	-5.570926	1	219.4304	-1.454788	-9.578902E-007	-0.0027663	10
	12	4	63105.47	219.164	-7.46885	1	219.2912	-1.951818	-9.016032E-007	-0.0027707	10
	13	4	50214.84	219.4734	-9.216125	1	219.6668	-2.404552	-9.794342E-007	-0.0027717	10
	14	4	39902.34	219.8832	-11.36186	1	220.1766	-2.957971	-9.426107E-007	-0.002771	10
	15	5	31699.22	220.4258	-13.98053	1	220.8687	-3.629131	-9.451553E-007	-0.0027729	10
	16	5	25136.72	221.133	-17.17896	1	221.7993	-4.442163	-9.409913E-007	-0.0027715	10
	17	5	19980.47	222.008	-21.00666	1	222.9996	-5.405301	-9.266811E-007	-0.0027731	10
	18	5	15878.91	223.0847	-25.64182	1	224.5535	-6.556921	-9.095221E-007	-0.0027728	10
	19	6	12597.66	224.4684	-31.32097	1	226.643	-7.943424	-9.265519E-007	-0.0027716	10
	20	6	10019.53	226.1145	-38.16004	1	229.312	-9.57921	-8.965073E-007	-0.0027761	10
	21	6	7928.241	228.2559	-46.66969	1	232.9782	-11.55555	-9.270056E-007	-0.002762	10
	22	6	6307.871	230.898	-56.79959	1	237.7815	-13.82003	-9.53681E-007	-0.0027605	10
	23	6	5034.722	234.1845	-68.87934	1	244.1039	-16.38989	-6.993863E-007	-0.0027363	10
	24	7	3993.056	238.4841	-83.9089	1	252.8149	-19.38405	-7.340383E-007	-0.0027371	10
	25	7	3144.055	244.2004	-102.7108	1	264.9214	-22.81165	-6.755706E-007	-0.002738	10
	26	7	2519.531	250.9876	-123.7103	1	279.8196	-26.23841	-6.788072E-007	-0.002738	10
	27	7	2000.762	260.0789	-149.891	1	300.1805	-29.95609	-6.894268E-007	-0.0027388	10
	28	8	1580.669	272.1595	-182.0306	1	327.4232	-33.77611	-6.666996E-007	-0.0027384	10
	29	8	1253.634	287.3562	-219.4482	1	361.5676	-37.36825	1.9065E-008	-0.0027395	9
	30	8	1000.702	307.1243	-262.8174	1	404.2256	-40.55481	2.203621E-008	-0.0027388	9
	31	8	790.0281	334.4141	-316.2356	1	460.2584	-43.39963	3.191788E-008	-0.0027371	9
	32	9	628.811	369.1272	-376.1138	1	526.9882	-45.53713	2.272942E-008	-0.0027388	9
	33	9	502.2321	413.7848	-443.2381	1	606.3644	-46.96831	3.698947E-008	-0.0027334	9
	34	9	400.1524	472.1812	-518.4639	1	701.256	-47.6749	9.598147E-009	-0.0027352	9
	35	9	315.5048	551.1273	-604.0616	1	817.6991	-47.62363	2.212075E-008	-0.0027342	9
	36	9	252.0161	645.302	-687.9944	1	943.2662	-46.834	1.852609E-008	-0.0027365	9
	37	10	200.3205	763.2223	-772.1674	1	1085.703	-45.3338	1.375885E-008	-0.0027386	9
	38	10	158.0056	908.2012	-851.2212	1	1244.752	-43.14509	3.364903E-008	-0.0027338	9
	39	10	125.558	1068.519	-913.7433	1	1405.937	-40.53539	2.147378E-008	-0.0027377	9
	40	10	99.734	1243.558	-957.176	1	1569.274	-37.58576	-9.818937E-009	-0.0027359	9
	41	11	79.44915	1423.648	-979.652	1	1728.147	-34.53295	-2.780233E-007	-0.002764	9
	42	11	63.34459	1603.124	-979.727	1	1878.795	-31.43061	-2.425786E-007	-0.0027576	9
	43	11	49.86702	1785.124	-959.005	1	2026.415	-28.2456	-2.305784E-007	-0.0027574	9
	44	11	38.42213	1970.033	-917.2598	1	2173.107	-24.96698	-2.555174E-007	-0.0027575	9
	45	12	31.25	2104.943	-873.8373	1	2279.118	-22.54509	-2.282589E-007	-0.0027549	9
	46	12	24.93351	2234.393	-827.935	1	2382.853	-20.33175	-2.449442E-007	-0.0027569	9
	47	12	20.03205	2349.391	-778.0088	1	2474.86	-18.32247	-2.665022E-007	-0.0027631	9
	48	12	15.625	2465.533	-723.6463	1	2569.537	-16.35723	-2.479183E-007	-0.0027549	9
	49	13	12.46675	2559.811	-676.9594	1	2647.812	-14.81314	-2.362356E-007	-0.0027568	9
	50	13	9.9734	2644.123	-634.8937	1	2719.278	-13.50197	-2.2747E-007	-0.0027547	9
	51	14	7.971939	2721.24	-597.3317	1	2786.028	-12.38048	-2.176229E-007	-0.0027578	9
	52	15	6.351626	2793.28	-564.5283	1	2849.755	-11.4257	-2.496663E-007	-0.0027595	9
	53	15	5.013369	2862.53	-535.8695	1	2912.256	-10.60312	-2.308714E-007	-0.0027574	9
	54	16	3.985969	2925.247	-513.651	1	2970.001	-9.95917	-2.096087E-007	-0.0027574	9
	55	17	3.175813	2984.117	-497.0263	1	3025.226	-9.456221	-2.405618E-007	-0.0027618	9
	56	19	2.516103	3039.926	-483.2079	1	3078.09	-9.031824	-3.352802E-007	-0.0027563	8
	57	21	1.99553	3095.246	-477.1573	1	3131.809	-8.763624	-3.438086E-007	-0.0027554	8
	58	23	1.587906	3148.887	-476.0201	1	3184.664	-8.596364	-3.288351E-007	-0.0027589	8
	59	25	1.258052	3203.108	-479.4796	1	3238.796	-8.513507	-3.367404E-007	-0.0027565	8
	60	29	0.997765	3258.523	-487.6547	1	3294.811	-8.511441	-3.761991E-007	-0.0027573	8
