EXPLAIN
TAG	EISPOT
TITLE	LABEL	Potentiostatic EIS	Test &Identifier
DATE	LABEL	7/8/2016	Date
TIME	LABEL	13:52:10	Time
NOTES	NOTES	1	&Notes...
	
PSTAT	PSTAT	IFC1000-05175	Potentiostat
VDC	POTEN	0.00000E+000	T	DC &Voltage (V)
FREQINIT	QUANT	1.00000E+006	Initial Fre&q. (Hz)
FREQFINAL	QUANT	1.00000E+000	Final Fre&q. (Hz)
PTSPERDEC	QUANT	1.00000E+001	Points/&decade
VAC	QUANT	1.00000E+002	AC &Voltage (mV rms)
AREA	QUANT	0.00000E+000	&Area (cm^2)
CONDIT	TWOPARAM	F	1.50000E+001	0.00000E+000	Conditionin&g	Time(s)	E(V)
DELAY	TWOPARAM	F	6.00000E+001	0.00000E+000	Init. De&lay	Time(s)	Stab.(mV/s)
SPEED	SELECTOR	0	&Optimize for:
ZGUESS	QUANT	1.00000E+002	E&stimated Z (ohms)
OCVCURVE	TABLE	40
	Pt	T	Vf	Vm	Ach	Over
	#	s	V vs. Ref.	V	V	bits
	0	0.25	-7.74288E-003	-7.74288E-003	0.00000E+000	...........
	1	0.5	-7.74308E-003	-7.75350E-003	0.00000E+000	...........
	2	0.75	-7.74432E-003	-7.76345E-003	0.00000E+000	...........
	3	1	-7.74782E-003	-7.77206E-003	0.00000E+000	...........
	4	1.25	-7.75398E-003	-7.78049E-003	0.00000E+000	...........
	5	1.5	-7.76199E-003	-7.78796E-003	0.00000E+000	...........
	6	1.75	-7.77065E-003	-7.79576E-003	0.00000E+000	...........
	7	2	-7.77916E-003	-7.80321E-003	0.00000E+000	...........
	8	2.25	-7.78725E-003	-7.80934E-003	0.00000E+000	...........
	9	2.5	-7.79488E-003	-7.81624E-003	0.00000E+000	...........
	10	2.75	-7.80207E-003	-7.82179E-003	0.00000E+000	...........
	11	3	-7.80883E-003	-7.82672E-003	0.00000E+000	...........
	12	3.25	-7.81513E-003	-7.83261E-003	0.00000E+000	...........
	13	3.5	-7.82102E-003	-7.83862E-003	0.00000E+000	...........
	14	3.75	-7.82667E-003	-7.84277E-003	0.00000E+000	...........
	15	4	-7.83214E-003	-7.84647E-003	0.00000E+000	...........
	16	4.25	-7.83730E-003	-7.85146E-003	0.00000E+000	...........
	17	4.5	-7.84208E-003	-7.85539E-003	0.00000E+000	...........
	18	4.75	-7.84654E-003	-7.85934E-003	0.00000E+000	...........
	19	5	-7.85081E-003	-7.86264E-003	0.00000E+000	...........
	20	5.25	-7.85491E-003	-7.86699E-003	0.00000E+000	...........
	21	5.5	-7.85885E-003	-7.87108E-003	0.00000E+000	...........
	22	5.75	-7.86272E-003	-7.87370E-003	0.00000E+000	...........
	23	6	-7.86652E-003	-7.87687E-003	0.00000E+000	...........
	24	6.25	-7.87013E-003	-7.88016E-003	0.00000E+000	...........
	25	6.5	-7.87350E-003	-7.88267E-003	0.00000E+000	...........
	26	6.75	-7.87666E-003	-7.88590E-003	0.00000E+000	...........
	27	7	-7.87969E-003	-7.88878E-003	0.00000E+000	...........
	28	7.25	-7.88263E-003	-7.89043E-003	0.00000E+000	...........
	29	7.5	-7.88547E-003	-7.89397E-003	0.00000E+000	...........
	30	7.75	-7.88817E-003	-7.89583E-003	0.00000E+000	...........
	31	8	-7.89078E-003	-7.89889E-003	0.00000E+000	...........
	32	8.25	-7.89336E-003	-7.90156E-003	0.00000E+000	...........
	33	8.5	-7.89596E-003	-7.90360E-003	0.00000E+000	...........
	34	8.75	-7.89856E-003	-7.90626E-003	0.00000E+000	...........
	35	9	-7.90108E-003	-7.90743E-003	0.00000E+000	...........
	36	9.25	-7.90343E-003	-7.90937E-003	0.00000E+000	...........
	37	9.5	-7.90552E-003	-7.90973E-003	0.00000E+000	...........
	38	9.75	-7.90733E-003	-7.91379E-003	0.00000E+000	...........
	39	10	-7.90905E-003	-7.91558E-003	0.00000E+000	...........
EOC	QUANT	-0.007909	Open Circuit (V)
PSTATMODEL	IQUANT	48	Pstat Model
PSTATSECTION	LABEL	IFC1000-05175	Pstat Section
PSTATSERIALNO	LABEL	05175	Pstat Serial Number
CTRLMODE	IQUANT	1	Control Mode
IESTAB	IQUANT	0	I/E Stability
CASPEED	IQUANT	1	Control Amp Speed
CONVENTION	IQUANT	1	Current Convention
ICHRANGE	IQUANT	2	Ich Range
ICHRANGEMODE	TOGGLE	F	Ich Auto Range
ICHOFFSETENABLE	TOGGLE	T	Ich Offset Enable
ICHOFFSET	QUANT	0	Ich Offset (V)
ICHFILTER	IQUANT	4	Ich Filter
VCHRANGE	IQUANT	2	Vch Range
VCHRANGEMODE	TOGGLE	F	Vch Auto Range
VCHOFFSETENABLE	TOGGLE	T	Vch Offset Enable
VCHOFFSET	QUANT	0	Vch Offset (V)
VCHFILTER	IQUANT	4	Vch Filter
IERANGELOWERLIMIT	IQUANT	4	I/E Range Lower Limit
IERANGEMODE	TOGGLE	F	I/E AutoRange
IERANGE	IQUANT	8	I/E Range
ACHSELECT	IQUANT	4	Ach Select
CABLEID	IQUANT	14	Cable ID
DCCALDATE	LABEL	27.2.2015	DC Calibration Date
ACCALDATE	LABEL	27.2.2015	AC Calibration Date
FRAMEWORKVERSION	QUANT	6.2	Framework Version
INSTRUMENTVERSION	LABEL	3.20	Instrument Version
ZCURVE	TABLE
	Pt	Time	Freq	Zreal	Zimag	Zsig	Zmod	Zphz	Idc	Vdc	IERange
	#	s	Hz	ohm	ohm	V	ohm	°	A	V	#
	0	1	1000020	212.4919	2.192439	1	212.5032	0.5911426	9.311163E-007	-0.0073754	10
	1	1	794355.5	212.367	1.227486	1	212.3705	0.3311672	8.596764E-007	-0.0073239	10
	2	1	630996.1	212.3713	0.4495763	1	212.3718	0.1212913	8.111481E-007	-0.0074979	10
	3	1	501269.5	212.4749	-0.2497006	1	212.4751	-0.067334	7.415566E-007	-0.0075849	10
	4	2	398144.5	212.6237	-0.8556913	1	212.6255	-0.2305821	7.271291E-007	-0.0076414	10
	5	2	316230.5	212.8144	-1.419312	1	212.8191	-0.3821141	7.202382E-007	-0.0076814	10
	6	2	251191.4	213.0498	-1.9365	1	213.0586	-0.5207715	7.576895E-007	-0.0077088	10
	7	2	199628.9	213.2024	-2.532959	1	213.2175	-0.6806725	7.170976E-007	-0.0077264	10
	8	3	158496.1	213.4093	-3.17059	1	213.4329	-0.851172	6.917401E-007	-0.0077782	10
	9	3	125918	213.5437	-3.8919	1	213.5792	-1.044118	6.985463E-007	-0.0077857	10
	10	3	100019.5	213.7132	-4.787872	1	213.7668	-1.283398	-6.926432E-007	-0.0079998	10
	11	3	79511.72	214.1644	-5.495488	1	214.2349	-1.469895	-7.737132E-007	-0.0080044	10
	12	4	63105.47	213.9493	-7.396166	1	214.0771	-1.97991	-7.883889E-007	-0.008007	10
	13	4	50214.84	214.2446	-9.179221	1	214.4411	-2.453314	-7.956825E-007	-0.008008	10
	14	4	39902.34	214.6616	-11.3605	1	214.962	-3.029429	-7.244154E-007	-0.0080083	10
	15	4	31699.22	215.2036	-13.99422	1	215.6581	-3.720582	-8.022425E-007	-0.0080098	10
	16	5	25136.72	215.9082	-17.22152	1	216.5939	-4.560437	-7.72847E-007	-0.0080087	10
	17	5	19980.47	216.8023	-21.08121	1	217.8248	-5.553811	-7.745926E-007	-0.0080104	10
	18	5	15878.91	217.9129	-25.77871	1	219.4324	-6.746634	-7.623584E-007	-0.0080113	10
	19	5	12597.66	219.333	-31.50566	1	221.5843	-8.174224	-7.605476E-007	-0.0080094	10
	20	6	10019.53	221.0796	-38.38219	1	224.3867	-9.84909	-7.626197E-007	-0.0080112	10
	21	6	7928.241	223.3897	-46.91221	1	228.2624	-11.85987	-8.739191E-007	-0.0079974	10
	22	6	6307.871	226.2209	-56.98304	1	233.2873	-14.13818	-8.647162E-007	-0.0079955	10
	23	6	5034.722	229.7481	-68.93468	1	239.867	-16.70159	-5.661981E-007	-0.0079775	10
	24	7	3993.056	234.3271	-83.69098	1	248.824	-19.65442	-5.302072E-007	-0.007973	10
	25	7	3144.055	240.3189	-102.0568	1	261.0915	-23.00959	-5.575295E-007	-0.0079747	10
	26	7	2519.531	247.3281	-122.4683	1	275.9885	-26.34303	-6.031157E-007	-0.0079772	10
	27	7	2000.762	256.5374	-147.8634	1	296.0997	-29.95834	-5.529982E-007	-0.0079755	10
	28	7	1580.669	268.6077	-179.0045	1	322.7889	-33.68013	-5.953452E-007	-0.0079774	10
	29	8	1253.634	283.6147	-215.2418	1	356.0426	-37.19571	6.00727E-008	-0.0079762	9
	30	8	1000.702	302.9492	-257.2582	1	397.4418	-40.33723	7.461342E-008	-0.0079742	9
	31	8	790.0281	329.4575	-309.0062	1	451.6935	-43.16533	8.458187E-008	-0.0079773	9
	32	8	628.811	362.9676	-366.9981	1	516.1716	-45.31636	9.147536E-008	-0.0079773	9
	33	9	502.2321	405.7637	-431.9965	1	592.6763	-46.79352	9.715296E-008	-0.0079724	9
	34	9	400.1524	461.2874	-504.9458	1	683.9271	-47.5871	8.111864E-008	-0.0079781	9
	35	9	315.5048	535.5951	-588.2995	1	795.5869	-47.68489	1.049092E-007	-0.0079758	9
	36	9	252.0161	623.4531	-670.9855	1	915.9232	-47.10299	9.741453E-008	-0.0079759	9
	37	9	200.3205	732.5283	-755.8249	1	1052.553	-45.89676	8.016427E-008	-0.007976	9
	38	10	158.0056	866.2968	-839.4302	1	1206.281	-44.09762	1.172184E-007	-0.0079751	9
	39	10	125.558	1014.811	-911.6758	1	1364.183	-41.93557	6.694822E-008	-0.0079729	9
	40	10	99.734	1179.21	-971.36	1	1527.769	-39.47957	1.143577E-007	-0.0079732	9
	41	10	79.44915	1352.636	-1016.626	1	1692.086	-36.92811	-2.429241E-007	-0.0079968	9
	42	11	63.34459	1531.244	-1044.803	1	1853.732	-34.30663	-1.882681E-007	-0.0079985	9
	43	11	49.86702	1721.192	-1057.642	1	2020.175	-31.57	-1.587752E-007	-0.0079968	9
	44	11	38.42213	1926.171	-1054.251	1	2195.809	-28.69322	-1.619707E-007	-0.0079992	9
	45	11	31.25	2085.869	-1039.469	1	2330.524	-26.48884	-1.223738E-007	-0.0079988	9
	46	12	24.93351	2248.701	-1021.135	1	2469.69	-24.42279	-1.278726E-007	-0.0079963	9
	47	12	20.03205	2402.531	-992.661	1	2599.526	-22.44909	-1.568943E-007	-0.0079967	9
	48	12	15.625	2566.865	-955.544	1	2738.953	-20.41833	-1.110312E-007	-0.0080006	9
	49	13	12.46675	2707.249	-917.52	1	2858.503	-18.72215	-7.960519E-008	-0.0079973	9
	50	13	9.9734	2836.726	-877.6336	1	2969.386	-17.19116	-6.19145E-008	-0.0079963	9
	51	14	7.971939	2957.549	-837.2483	1	3073.773	-15.80621	-5.179268E-008	-0.0079959	9
	52	14	6.351626	3068.249	-796.5767	1	3169.966	-14.55379	-1.233416E-007	-0.0079997	8
	53	15	5.013369	3176.664	-757.3499	1	3265.696	-13.40959	-1.191576E-007	-0.0079971	8
	54	16	3.985969	3273.064	-722.9553	1	3351.957	-12.45551	-9.56604E-008	-0.0079962	8
	55	17	3.175813	3361.537	-693.3053	1	3432.288	-11.65365	-9.401011E-008	-0.007997	8
	56	18	2.516103	3445.936	-666.373	1	3509.776	-10.94473	-8.553384E-008	-0.0079953	8
	57	20	1.99553	3524.113	-647.6122	1	3583.124	-10.41284	-7.865167E-008	-0.0079933	8
	58	22	1.587906	3597.372	-634.7309	1	3652.939	-10.00644	-6.529335E-008	-0.0079958	8
	59	25	1.258052	3668.455	-627.8142	1	3721.789	-9.71144	-5.11524E-008	-0.0079949	8
	60	28	0.997765	3738.945	-627.2063	1	3791.187	-9.52268	-6.403569E-008	-0.0079953	8
