EXPLAIN
TAG	EISPOT
TITLE	LABEL	Potentiostatic EIS	Test &Identifier
DATE	LABEL	22.9.2016	Date
TIME	LABEL	10:49:29	Time
NOTES	NOTES	1	&Notes...
	
PSTAT	PSTAT	IFC1000-05175	Potentiostat
VDC	POTEN	0.00000E+000	T	DC &Voltage (V)
FREQINIT	QUANT	1.00000E+006	Initial Fre&q. (Hz)
FREQFINAL	QUANT	1.00000E-001	Final Fre&q. (Hz)
PTSPERDEC	QUANT	1.00000E+001	Points/&decade
VAC	QUANT	1.00000E+002	AC &Voltage (mV rms)
AREA	QUANT	1.00000E+000	&Area (cm^2)
CONDIT	TWOPARAM	F	1.50000E+001	0.00000E+000	Conditionin&g	Time(s)	E(V)
DELAY	TWOPARAM	F	6.00000E+001	0.00000E+000	Init. De&lay	Time(s)	Stab.(mV/s)
SPEED	SELECTOR	1	&Optimize for:
ZGUESS	QUANT	1.00000E+002	E&stimated Z (ohms)
OCVCURVE	TABLE	40
	Pt	T	Vf	Vm	Ach	Over
	#	s	V vs. Ref.	V	V	bits
	0	0.25	-1.70904E-002	-1.70904E-002	0.00000E+000	...........
	1	0.5	-1.70885E-002	-1.69890E-002	0.00000E+000	...........
	2	0.75	-1.70760E-002	-1.68611E-002	0.00000E+000	...........
	3	1	-1.70389E-002	-1.67520E-002	0.00000E+000	...........
	4	1.25	-1.69696E-002	-1.66418E-002	0.00000E+000	...........
	5	1.5	-1.68748E-002	-1.65578E-002	0.00000E+000	...........
	6	1.75	-1.67683E-002	-1.64254E-002	0.00000E+000	...........
	7	2	-1.66596E-002	-1.63169E-002	0.00000E+000	...........
	8	2.25	-1.65504E-002	-1.62253E-002	0.00000E+000	...........
	9	2.5	-1.64415E-002	-1.61302E-002	0.00000E+000	...........
	10	2.75	-1.63356E-002	-1.60330E-002	0.00000E+000	...........
	11	3	-1.62348E-002	-1.59607E-002	0.00000E+000	...........
	12	3.25	-1.61392E-002	-1.58615E-002	0.00000E+000	...........
	13	3.5	-1.60481E-002	-1.57804E-002	0.00000E+000	...........
	14	3.75	-1.59598E-002	-1.56990E-002	0.00000E+000	...........
	15	4	-1.58730E-002	-1.55953E-002	0.00000E+000	...........
	16	4.25	-1.57863E-002	-1.55247E-002	0.00000E+000	...........
	17	4.5	-1.56996E-002	-1.54535E-002	0.00000E+000	...........
	18	4.75	-1.56153E-002	-1.53944E-002	0.00000E+000	...........
	19	5	-1.55370E-002	-1.53433E-002	0.00000E+000	...........
	20	5.25	-1.54665E-002	-1.52839E-002	0.00000E+000	...........
	21	5.5	-1.54030E-002	-1.52104E-002	0.00000E+000	...........
	22	5.75	-1.53430E-002	-1.51661E-002	0.00000E+000	...........
	23	6	-1.52834E-002	-1.50920E-002	0.00000E+000	...........
	24	6.25	-1.52235E-002	-1.50520E-002	0.00000E+000	...........
	25	6.5	-1.51643E-002	-1.49836E-002	0.00000E+000	...........
	26	6.75	-1.51057E-002	-1.49125E-002	0.00000E+000	...........
	27	7	-1.50465E-002	-1.48534E-002	0.00000E+000	...........
	28	7.25	-1.49853E-002	-1.48033E-002	0.00000E+000	...........
	29	7.5	-1.49235E-002	-1.47457E-002	0.00000E+000	...........
	30	7.75	-1.48636E-002	-1.46935E-002	0.00000E+000	...........
	31	8	-1.48066E-002	-1.46474E-002	0.00000E+000	...........
	32	8.25	-1.47531E-002	-1.46439E-002	0.00000E+000	...........
	33	8.5	-1.47068E-002	-1.46455E-002	0.00000E+000	...........
	34	8.75	-1.46727E-002	-1.46335E-002	0.00000E+000	...........
	35	9	-1.46516E-002	-1.46047E-002	0.00000E+000	...........
	36	9.25	-1.46372E-002	-1.45540E-002	0.00000E+000	...........
	37	9.5	-1.46201E-002	-1.45167E-002	0.00000E+000	...........
	38	9.75	-1.45942E-002	-1.44773E-002	0.00000E+000	...........
	39	10	-1.45601E-002	-1.44437E-002	0.00000E+000	...........
EOC	QUANT	-0.0145601	Open Circuit (V)
PSTATMODEL	IQUANT	48	Pstat Model
PSTATSECTION	LABEL	IFC1000-05175	Pstat Section
PSTATSERIALNO	LABEL	05175	Pstat Serial Number
CTRLMODE	IQUANT	1	Control Mode
IESTAB	IQUANT	0	I/E Stability
CASPEED	IQUANT	1	Control Amp Speed
CONVENTION	IQUANT	1	Current Convention
ICHRANGE	IQUANT	2	Ich Range
ICHRANGEMODE	TOGGLE	F	Ich Auto Range
ICHOFFSETENABLE	TOGGLE	T	Ich Offset Enable
ICHOFFSET	QUANT	0	Ich Offset (V)
ICHFILTER	IQUANT	4	Ich Filter
VCHRANGE	IQUANT	2	Vch Range
VCHRANGEMODE	TOGGLE	F	Vch Auto Range
VCHOFFSETENABLE	TOGGLE	T	Vch Offset Enable
VCHOFFSET	QUANT	0	Vch Offset (V)
VCHFILTER	IQUANT	4	Vch Filter
IERANGELOWERLIMIT	IQUANT	4	I/E Range Lower Limit
IERANGEMODE	TOGGLE	F	I/E AutoRange
IERANGE	IQUANT	9	I/E Range
ACHSELECT	IQUANT	4	Ach Select
CABLEID	IQUANT	14	Cable ID
DCCALDATE	LABEL	27.2.2015	DC Calibration Date
ACCALDATE	LABEL	27.2.2015	AC Calibration Date
FRAMEWORKVERSION	QUANT	6.2	Framework Version
INSTRUMENTVERSION	LABEL	3.20	Instrument Version
ZCURVE	TABLE
	Pt	Time	Freq	Zreal	Zimag	Zsig	Zmod	Zphz	Idc	Vdc	IERange
	#	s	Hz	ohm	ohm	V	ohm	°	A	V	#
	0	1	1000020	4558.37	-2510.828	1	5204.132	-28.84673	1.619127E-006	-0.0140903	9
	1	2	794355.5	4991.188	-2191.316	1	5451.039	-23.70325	1.747687E-006	-0.0140146	9
	2	4	630996.1	5311.409	-1856.282	1	5626.442	-19.26398	1.71424E-006	-0.0141485	9
	3	5	501269.5	5537.28	-1543.899	1	5748.486	-15.57948	1.666086E-006	-0.0142061	9
	4	6	398144.5	5694.305	-1263.275	1	5832.75	-12.50842	1.654091E-006	-0.0142524	9
	5	8	316230.5	5800.651	-1027.444	1	5890.941	-10.04437	1.658204E-006	-0.0142849	9
	6	9	251191.4	5904.231	-741.6018	1	5950.624	-7.159152	8.311108E-007	-0.014791	8
	7	10	199628.9	5936.803	-594.9155	1	5966.537	-5.722395	8.396066E-007	-0.0148171	8
	8	12	158496.1	5959.238	-474.135	1	5978.07	-4.549043	8.529247E-007	-0.0148274	8
	9	13	125918	5974.023	-380.6841	1	5986.14	-3.646143	8.466714E-007	-0.0148499	8
	10	14	100019.5	5982.728	-305.1435	1	5990.504	-2.919788	-1.239427E-007	-0.0145016	8
	11	16	79511.72	5990.367	-245.1316	1	5995.38	-2.343292	-1.185814E-007	-0.0145064	8
	12	17	63105.47	5996.429	-197.6755	1	5999.686	-1.888103	-1.240569E-007	-0.0145097	8
	13	19	50214.84	6001.301	-161.7515	1	6003.48	-1.543904	-1.560799E-007	-0.0145092	8
	14	20	39902.34	6005.215	-130.9319	1	6006.643	-1.249024	-1.687555E-007	-0.0145143	8
	15	21	31699.22	6007.017	-109.9778	1	6008.024	-1.048867	-1.83139E-007	-0.0145129	8
	16	23	25136.72	6009.4	-94.10818	1	6010.137	-0.8971879	-2.004763E-007	-0.0145122	8
	17	24	19980.47	6012.016	-81.50497	1	6012.568	-0.776712	-2.055451E-007	-0.0145137	8
	18	25	15878.91	6015.579	-73.64616	1	6016.03	-0.7014126	-2.200064E-007	-0.0145125	8
	19	26	12597.66	6016.25	-65.71661	1	6016.609	-0.6258274	-2.343816E-007	-0.0145148	8
	20	28	10019.53	6021.555	-63.51202	1	6021.89	-0.6043016	-2.360738E-007	-0.0145142	8
	21	29	7928.241	6025.903	-62.1936	1	6026.224	-0.5913312	-3.10154E-007	-0.0143769	8
	22	30	6307.871	6030.362	-62.87045	1	6030.689	-0.5973242	-3.226673E-007	-0.0143801	8
	23	32	5034.722	6034.86	-65.8492	1	6035.22	-0.6251563	-1.874035E-007	-0.0145016	8
	24	33	3993.056	6041.212	-69.98883	1	6041.617	-0.6637551	-1.932653E-007	-0.014499	8
	25	34	3144.055	6048.05	-75.75304	1	6048.525	-0.7176036	-1.953462E-007	-0.0145045	8
	26	36	2519.531	6055.414	-82.46895	1	6055.976	-0.7802655	-2.055913E-007	-0.0145038	8
	27	37	2000.762	6064.286	-90.8008	1	6064.965	-0.857828	-2.037963E-007	-0.0145031	8
	28	38	1580.669	6074.292	-100.9587	1	6075.13	-0.952206	-2.117622E-007	-0.0145004	8
	29	39	1253.634	6085.863	-112.6728	1	6086.906	-1.060645	-2.150038E-007	-0.0144998	8
	30	41	1000.702	6098.22	-125.7954	1	6099.517	-1.181742	-2.170432E-007	-0.014502	8
	31	42	790.0281	6112.992	-141.7114	1	6114.634	-1.327993	-2.170563E-007	-0.0144998	8
	32	43	628.811	6128.781	-159.561	1	6130.858	-1.491341	-2.104251E-007	-0.0145033	8
	33	45	502.2321	6146.201	-179.6909	1	6148.827	-1.674628	-2.07535E-007	-0.0144973	8
	34	46	400.1524	6166.177	-202.8087	1	6169.512	-1.883809	-2.098752E-007	-0.0144972	8
	35	47	315.5048	6189.599	-230.9871	1	6193.908	-2.137206	-2.086154E-007	-0.0144988	8
	36	48	252.0161	6216.327	-261.238	1	6221.813	-2.40641	-2.250338E-007	-0.0144891	8
	37	50	200.3205	6246.438	-296.6129	1	6253.477	-2.718655	-2.128055E-007	-0.014503	8
	38	51	158.0056	6280.997	-338.5914	1	6290.117	-3.085672	-1.995985E-007	-0.0144971	8
	39	52	125.558	6320.664	-384.6227	1	6332.355	-3.482248	-2.101761E-007	-0.0145032	8
	40	53	99.734	6365.912	-437.1067	1	6380.901	-3.927971	-1.943836E-007	-0.0145045	8
	41	55	79.44915	6423.063	-494.7442	1	6442.089	-4.404579	-3.88111E-007	-0.0145169	8
	42	56	63.34459	6482.077	-561.0562	1	6506.313	-4.946908	-3.902884E-007	-0.0145223	8
	43	57	49.86702	6552.743	-639.3638	1	6583.861	-5.57282	-3.888503E-007	-0.0145218	8
	44	58	38.42213	6641.183	-737.3674	1	6681.992	-6.335575	-3.920846E-007	-0.0145222	8
	45	60	31.25	6721.727	-824.1159	1	6772.059	-6.989853	-3.768988E-007	-0.0145231	8
	46	61	24.93351	6823.772	-929.5563	1	6886.795	-7.757268	-4.047207E-007	-0.0145186	8
	47	62	20.03205	6933.423	-1044.042	1	7011.589	-8.563323	-4.027496E-007	-0.0145217	8
	48	64	15.625	7075.472	-1187.29	1	7174.396	-9.5257	-3.828337E-007	-0.0145309	8
	49	65	12.46675	7222.605	-1333.033	1	7344.59	-10.45706	-3.729585E-007	-0.0145226	8
	50	67	9.9734	7385.563	-1492.721	1	7534.902	-11.42631	-3.573775E-007	-0.0145216	8
	51	69	7.971939	7570.479	-1669.495	1	7752.377	-12.43622	-3.372067E-007	-0.0145205	8
	52	70	6.351626	7781.269	-1867.149	1	8002.149	-13.49325	-3.242245E-007	-0.0145242	8
	53	72	5.013369	8028.212	-2093.938	1	8296.793	-14.61835	-2.923444E-007	-0.0145278	8
	54	75	3.985969	8298.123	-2336.96	1	8620.918	-15.72855	-2.725071E-007	-0.0145232	8
	55	77	3.175813	8597.337	-2601.791	1	8982.4	-16.83726	-2.534779E-007	-0.0145252	8
	56	80	2.516103	8946.313	-2886.147	1	9400.338	-17.88009	-2.356403E-007	-0.0145197	8
	57	83	1.99553	9331.632	-3215.282	1	9870.02	-19.01176	-2.118969E-007	-0.0145186	8
	58	86	1.587906	9761.31	-3570.67	1	10393.89	-20.09243	-1.847498E-007	-0.0145217	8
	59	91	1.258052	10256.91	-3967.063	1	10997.35	-21.14497	-1.581135E-007	-0.014521	8
	60	96	0.997765	10823.4	-4397.351	1	11682.58	-22.11101	-1.570703E-007	-0.0145224	8
	61	101	0.7927448	11456.42	-4854.98	1	12442.69	-22.96616	-1.449387E-007	-0.0145198	8
	62	107	0.6290258	12183.7	-5344.111	1	13304.21	-23.6836	-1.285193E-007	-0.0145206	8
	63	115	0.4988825	13019.05	-5863.756	1	14278.63	-24.24671	-1.084903E-007	-0.0145214	8
	64	124	0.3985969	13947.98	-6384.157	1	15339.61	-24.59413	-8.688947E-008	-0.0145233	8
	65	135	0.316723	15017.89	-6913.601	1	16532.84	-24.71935	-7.052727E-008	-0.0145252	8
	66	149	0.2514753	16223.91	-7429.725	1	17844.22	-24.60536	-3.380761E-008	-0.0145241	8
	67	166	0.1999787	17766.24	-8177.408	1	19557.84	-24.71558	1.205059E-007	-0.0145241	8
	68	187	0.1587906	19490.67	-8872.778	1	21415.24	-24.47655	2.435103E-007	-0.0145243	8
	69	213	0.1260081	21124.65	-9196.042	1	23039.49	-23.52459	1.641512E-007	-0.0145252	8
	70	243	0.1001603	22803.53	-9383.049	1	24658.52	-22.36587	7.417385E-008	-0.0145263	8
