EXPLAIN
TAG	EISPOT
TITLE	LABEL	Potentiostatic EIS	Test &Identifier
DATE	LABEL	21.9.2016	Date
TIME	LABEL	9:58:48	Time
NOTES	NOTES	1	&Notes...
	
PSTAT	PSTAT	IFC1000-05175	Potentiostat
VDC	POTEN	0.00000E+000	T	DC &Voltage (V)
FREQINIT	QUANT	1.00000E+006	Initial Fre&q. (Hz)
FREQFINAL	QUANT	1.00000E-001	Final Fre&q. (Hz)
PTSPERDEC	QUANT	1.00000E+001	Points/&decade
VAC	QUANT	1.00000E+002	AC &Voltage (mV rms)
AREA	QUANT	1.00000E+000	&Area (cm^2)
CONDIT	TWOPARAM	F	1.50000E+001	0.00000E+000	Conditionin&g	Time(s)	E(V)
DELAY	TWOPARAM	F	6.00000E+001	0.00000E+000	Init. De&lay	Time(s)	Stab.(mV/s)
SPEED	SELECTOR	1	&Optimize for:
ZGUESS	QUANT	1.00000E+002	E&stimated Z (ohms)
OCVCURVE	TABLE	40
	Pt	T	Vf	Vm	Ach	Over
	#	s	V vs. Ref.	V	V	bits
	0	0.25	-3.91390E-002	-3.91390E-002	0.00000E+000	...........
	1	0.5	-3.91372E-002	-3.90464E-002	0.00000E+000	...........
	2	0.75	-3.91265E-002	-3.89668E-002	0.00000E+000	...........
	3	1	-3.90969E-002	-3.89001E-002	0.00000E+000	...........
	4	1.25	-3.90460E-002	-3.88467E-002	0.00000E+000	...........
	5	1.5	-3.89820E-002	-3.87841E-002	0.00000E+000	...........
	6	1.75	-3.89155E-002	-3.87367E-002	0.00000E+000	...........
	7	2	-3.88522E-002	-3.86694E-002	0.00000E+000	...........
	8	2.25	-3.87923E-002	-3.86031E-002	0.00000E+000	...........
	9	2.5	-3.87331E-002	-3.85441E-002	0.00000E+000	...........
	10	2.75	-3.86727E-002	-3.84861E-002	0.00000E+000	...........
	11	3	-3.86115E-002	-3.84316E-002	0.00000E+000	...........
	12	3.25	-3.85512E-002	-3.83796E-002	0.00000E+000	...........
	13	3.5	-3.84928E-002	-3.83083E-002	0.00000E+000	...........
	14	3.75	-3.84347E-002	-3.82245E-002	0.00000E+000	...........
	15	4	-3.83736E-002	-3.81679E-002	0.00000E+000	...........
	16	4.25	-3.83077E-002	-3.80852E-002	0.00000E+000	...........
	17	4.5	-3.82386E-002	-3.80421E-002	0.00000E+000	...........
	18	4.75	-3.81698E-002	-3.79726E-002	0.00000E+000	...........
	19	5	-3.81040E-002	-3.79301E-002	0.00000E+000	...........
	20	5.25	-3.80424E-002	-3.78700E-002	0.00000E+000	...........
	21	5.5	-3.79848E-002	-3.78165E-002	0.00000E+000	...........
	22	5.75	-3.79295E-002	-3.77610E-002	0.00000E+000	...........
	23	6	-3.78747E-002	-3.76960E-002	0.00000E+000	...........
	24	6.25	-3.78187E-002	-3.76230E-002	0.00000E+000	...........
	25	6.5	-3.77595E-002	-3.75521E-002	0.00000E+000	...........
	26	6.75	-3.76953E-002	-3.74506E-002	0.00000E+000	...........
	27	7	-3.76245E-002	-3.73719E-002	0.00000E+000	...........
	28	7.25	-3.75480E-002	-3.73621E-002	0.00000E+000	...........
	29	7.5	-3.74730E-002	-3.72960E-002	0.00000E+000	...........
	30	7.75	-3.74073E-002	-3.72526E-002	0.00000E+000	...........
	31	8	-3.73517E-002	-3.71932E-002	0.00000E+000	...........
	32	8.25	-3.73008E-002	-3.71296E-002	0.00000E+000	...........
	33	8.5	-3.72493E-002	-3.70849E-002	0.00000E+000	...........
	34	8.75	-3.71956E-002	-3.70265E-002	0.00000E+000	...........
	35	9	-3.71405E-002	-3.69618E-002	0.00000E+000	...........
	36	9.25	-3.70845E-002	-3.68998E-002	0.00000E+000	...........
	37	9.5	-3.70267E-002	-3.68394E-002	0.00000E+000	...........
	38	9.75	-3.69669E-002	-3.67842E-002	0.00000E+000	...........
	39	10	-3.69063E-002	-3.67182E-002	0.00000E+000	...........
EOC	QUANT	-0.0369063	Open Circuit (V)
PSTATMODEL	IQUANT	48	Pstat Model
PSTATSECTION	LABEL	IFC1000-05175	Pstat Section
PSTATSERIALNO	LABEL	05175	Pstat Serial Number
CTRLMODE	IQUANT	1	Control Mode
IESTAB	IQUANT	0	I/E Stability
CASPEED	IQUANT	1	Control Amp Speed
CONVENTION	IQUANT	1	Current Convention
ICHRANGE	IQUANT	2	Ich Range
ICHRANGEMODE	TOGGLE	F	Ich Auto Range
ICHOFFSETENABLE	TOGGLE	T	Ich Offset Enable
ICHOFFSET	QUANT	0	Ich Offset (V)
ICHFILTER	IQUANT	4	Ich Filter
VCHRANGE	IQUANT	2	Vch Range
VCHRANGEMODE	TOGGLE	F	Vch Auto Range
VCHOFFSETENABLE	TOGGLE	T	Vch Offset Enable
VCHOFFSET	QUANT	0	Vch Offset (V)
VCHFILTER	IQUANT	4	Vch Filter
IERANGELOWERLIMIT	IQUANT	4	I/E Range Lower Limit
IERANGEMODE	TOGGLE	F	I/E AutoRange
IERANGE	IQUANT	9	I/E Range
ACHSELECT	IQUANT	4	Ach Select
CABLEID	IQUANT	14	Cable ID
DCCALDATE	LABEL	27.2.2015	DC Calibration Date
ACCALDATE	LABEL	27.2.2015	AC Calibration Date
FRAMEWORKVERSION	QUANT	6.2	Framework Version
INSTRUMENTVERSION	LABEL	3.20	Instrument Version
ZCURVE	TABLE
	Pt	Time	Freq	Zreal	Zimag	Zsig	Zmod	Zphz	Idc	Vdc	IERange
	#	s	Hz	ohm	ohm	V	ohm	°	A	V	#
	0	1	1000020	19.89822	4.407492	1	20.38051	12.48946	1.912355E-005	-0.0361945	11
	1	2	794355.5	19.93378	3.386545	1	20.2194	9.64191	1.448091E-005	-0.0361504	11
	2	3	630996.1	19.95891	2.567714	1	20.1234	7.330836	1.573425E-005	-0.0364099	11
	3	5	501269.5	19.99292	1.897095	1	20.08272	5.420473	1.473488E-005	-0.0365635	11
	4	6	398144.5	20.01587	1.334917	1	20.06034	3.815573	1.473347E-005	-0.0366532	11
	5	7	316230.5	20.06922	0.8548815	1	20.08742	2.439133	1.455918E-005	-0.0367144	11
	6	9	251191.4	20.11476	0.4278083	1	20.11931	1.218404	1.406254E-005	-0.0367521	11
	7	10	199628.9	20.18379	0.0413934	1	20.18384	0.1175035	1.410484E-005	-0.036782	11
	8	11	158496.1	20.24678	-0.3283857	1	20.24944	-0.9292079	1.426703E-005	-0.0367974	11
	9	13	125918	20.32918	-0.6853319	1	20.34073	-1.930809	1.392868E-005	-0.0368055	11
	10	14	100019.5	20.45087	-1.040483	1	20.47732	-2.912537	-1.739981E-006	-0.0369805	11
	11	15	79511.72	20.60162	-1.402846	1	20.64932	-3.895483	-2.206099E-006	-0.0369852	11
	12	16	63105.47	20.77446	-1.795013	1	20.85186	-4.938366	-2.374608E-006	-0.0369889	11
	13	18	50214.84	20.96981	-2.218687	1	21.08686	-6.039646	-2.469741E-006	-0.0369907	11
	14	19	39902.34	21.21211	-2.686949	1	21.38161	-7.219239	-2.270669E-006	-0.0369914	11
	15	20	31699.22	21.49696	-3.209107	1	21.73517	-8.490521	-2.769101E-006	-0.0369909	11
	16	22	25136.72	21.84658	-3.797812	1	22.17423	-9.86175	-2.703191E-006	-0.0369911	11
	17	23	19980.47	22.24292	-4.460626	1	22.68578	-11.33976	-3.024324E-006	-0.0369932	11
	18	24	15878.91	22.71198	-5.212709	1	23.30249	-12.9263	-2.519167E-006	-0.0369925	11
	19	26	12597.66	23.25763	-6.078267	1	24.03878	-14.64638	-2.390505E-006	-0.0369922	11
	20	27	10019.53	23.88695	-7.0607	1	24.90863	-16.46706	-3.653771E-006	-0.0369933	11
	21	28	7928.241	24.63339	-8.215022	1	25.96711	-18.44309	-1.309569E-006	-0.036978	11
	22	29	6307.871	25.48264	-9.51371	1	27.20065	-20.47267	-2.075387E-006	-0.0369773	11
	23	31	5034.722	26.44465	-10.98333	1	28.63483	-22.55471	-4.085404E-007	-0.0369699	11
	24	32	3993.056	27.59835	-12.70832	1	30.38372	-24.72484	-4.506652E-007	-0.0369688	11
	25	33	3144.055	28.99393	-14.77834	1	32.543	-27.00816	-5.891906E-007	-0.0369706	10
	26	35	2519.531	30.49792	-16.95506	1	34.89408	-29.0715	-4.599321E-007	-0.0369707	10
	27	36	2000.762	32.30287	-19.53238	1	37.74903	-31.15984	-6.264245E-007	-0.0369705	10
	28	37	1580.669	34.45277	-22.54338	1	41.17278	-33.19781	-5.719775E-007	-0.03697	10
	29	39	1253.634	36.89573	-25.91809	1	45.08927	-35.08684	-6.425479E-007	-0.0369709	10
	30	40	1000.702	39.61591	-29.65123	1	49.48348	-36.81367	-6.979149E-007	-0.0369717	10
	31	41	790.0281	42.88249	-34.10929	1	54.79372	-38.4992	-7.050348E-007	-0.0369714	10
	32	42	628.811	46.47925	-39.02404	1	60.68934	-40.01686	-6.655353E-007	-0.0369716	10
	33	44	502.2321	50.49799	-44.54572	1	67.33772	-41.41644	-6.866795E-007	-0.0369629	10
	34	45	400.1524	55.02553	-50.81643	1	74.90072	-42.72267	-8.796335E-007	-0.0369635	10
	35	46	315.5048	60.48404	-58.53675	1	84.17167	-44.06267	-7.749915E-007	-0.0369646	10
	36	47	252.0161	66.33981	-66.95591	1	94.25531	-45.26482	-7.889788E-007	-0.036966	10
	37	49	200.3205	73.13228	-76.88929	1	106.1145	-46.43457	-8.595688E-007	-0.0369697	10
	38	50	158.0056	81.18534	-88.86208	1	120.3642	-47.58485	-6.843431E-007	-0.0369683	10
	39	51	125.558	90.11639	-102.2982	1	136.3301	-48.62258	-9.41796E-007	-0.0369658	10
	40	52	99.734	100.4356	-117.9522	1	154.9194	-49.58581	-9.925535E-007	-0.0369648	10
	41	53	79.44915	112.5613	-136.3115	1	176.7792	-50.45129	-3.612586E-006	-0.0369895	10
	42	55	63.34459	126.3709	-157.2564	1	201.7403	-51.21472	-3.208325E-006	-0.0369905	10
	43	56	49.86702	143.2734	-182.4898	1	232.0125	-51.86442	-3.001657E-006	-0.0369854	10
	44	57	38.42213	165.2667	-214.5796	1	270.8459	-52.39695	-2.909011E-006	-0.036995	10
	45	58	31.25	186.0108	-243.8946	1	306.7321	-52.66836	-2.698123E-006	-0.0369885	10
	46	60	24.93351	210.628	-279.887	1	350.2868	-53.03683	-3.387963E-006	-0.0369911	9
	47	61	20.03205	239.5831	-319.8033	1	399.5926	-53.16099	-3.322934E-006	-0.0369902	9
	48	63	15.625	277.8705	-371.5198	1	463.9385	-53.20612	-3.237038E-006	-0.0369871	9
	49	64	12.46675	318.8918	-425.0527	1	531.3773	-53.12128	-3.158673E-006	-0.0369901	9
	50	66	9.9734	366.1779	-484.662	1	607.4402	-52.92776	-3.134564E-006	-0.0369895	9
	51	67	7.971939	421.2635	-551.636	1	694.0931	-52.6324	-3.128903E-006	-0.0369888	9
	52	69	6.351626	486.8432	-627.798	1	794.4473	-52.20723	-3.174818E-006	-0.0369895	9
	53	71	5.013369	566.827	-716.2028	1	913.3669	-51.64072	-3.129496E-006	-0.0369892	9
	54	73	3.985969	657.584	-810.8964	1	1044.016	-50.9602	-3.10512E-006	-0.0369895	9
	55	76	3.175813	762.5218	-913.3832	1	1189.835	-50.14378	-3.189994E-006	-0.0369901	9
	56	78	2.516103	889.7291	-1026.775	1	1358.633	-49.09016	-3.267142E-006	-0.0369874	9
	57	81	1.99553	1030.844	-1142.603	1	1538.89	-47.94355	-3.336935E-006	-0.0369854	9
	58	85	1.587906	1196.577	-1271.69	1	1746.136	-46.74305	-3.326219E-006	-0.0369881	9
	59	89	1.258052	1388.449	-1405.26	1	1975.486	-45.34479	-3.336833E-006	-0.0369865	9
	60	96	0.997765	1605.386	-1540.893	1	2225.223	-43.8257	-3.294351E-006	-0.0369859	9
	61	102	0.7927448	1844.697	-1648.253	1	2473.792	-41.78107	-4.073573E-006	-0.0369868	9
	62	109	0.6290258	2109.98	-1778.367	1	2759.458	-40.1254	-3.892245E-006	-0.0369868	9
	63	118	0.4988825	2399.657	-1895.335	1	3057.883	-38.30294	-3.933334E-006	-0.0369881	9
	64	129	0.3985969	2698.206	-1994.962	1	3355.62	-36.47797	-4.002188E-006	-0.0369889	8
	65	143	0.316723	3024.048	-2082.922	1	3671.979	-34.55852	-4.139767E-006	-0.0369888	8
	66	160	0.2514753	3364.976	-2151.066	1	3993.764	-32.58881	-4.29853E-006	-0.0369899	8
	67	181	0.1999787	3712.117	-2199.726	1	4314.928	-30.65013	-4.46862E-006	-0.0369893	8
	68	207	0.1587906	4070.876	-2237.861	1	4645.434	-28.79868	-4.567216E-006	-0.0369911	8
	69	239	0.1260081	4439.631	-2263.724	1	4983.45	-27.01658	-4.627483E-006	-0.0369916	8
	70	277	0.1001603	4783.832	-2227.262	1	5276.907	-24.9658	-4.798581E-006	-0.0369916	8
