EXPLAIN
TAG	EISPOT
TITLE	LABEL	Potentiostatic EIS	Test &Identifier
DATE	LABEL	22.9.2016	Date
TIME	LABEL	14:42:27	Time
NOTES	NOTES	1	&Notes...
	
PSTAT	PSTAT	IFC1000-05175	Potentiostat
VDC	POTEN	0.00000E+000	T	DC &Voltage (V)
FREQINIT	QUANT	1.00000E+006	Initial Fre&q. (Hz)
FREQFINAL	QUANT	1.00000E-001	Final Fre&q. (Hz)
PTSPERDEC	QUANT	1.00000E+001	Points/&decade
VAC	QUANT	1.00000E+002	AC &Voltage (mV rms)
AREA	QUANT	1.00000E+000	&Area (cm^2)
CONDIT	TWOPARAM	F	1.50000E+001	0.00000E+000	Conditionin&g	Time(s)	E(V)
DELAY	TWOPARAM	F	6.00000E+001	0.00000E+000	Init. De&lay	Time(s)	Stab.(mV/s)
SPEED	SELECTOR	1	&Optimize for:
ZGUESS	QUANT	1.00000E+002	E&stimated Z (ohms)
OCVCURVE	TABLE	40
	Pt	T	Vf	Vm	Ach	Over
	#	s	V vs. Ref.	V	V	bits
	0	0.25	-3.67456E-004	-3.67456E-004	0.00000E+000	...........
	1	0.5	-3.67813E-004	-3.86157E-004	0.00000E+000	...........
	2	0.75	-3.70305E-004	-4.19472E-004	0.00000E+000	...........
	3	1	-3.79871E-004	-5.31440E-004	0.00000E+000	...........
	4	1.25	-4.06265E-004	-6.75196E-004	0.00000E+000	...........
	5	1.5	-4.56060E-004	-5.39836E-004	0.00000E+000	...........
	6	1.75	-5.17056E-004	-6.39003E-004	0.00000E+000	...........
	7	2	-5.66826E-004	-6.34715E-004	0.00000E+000	...........
	8	2.25	-5.98116E-004	-6.40435E-004	0.00000E+000	...........
	9	2.5	-6.17820E-004	-6.53662E-004	0.00000E+000	...........
	10	2.75	-6.31921E-004	-6.71097E-004	0.00000E+000	...........
	11	3	-6.43815E-004	-6.86783E-004	0.00000E+000	...........
	12	3.25	-6.56303E-004	-7.07636E-004	0.00000E+000	...........
	13	3.5	-6.70876E-004	-7.29079E-004	0.00000E+000	...........
	14	3.75	-6.86131E-004	-6.59958E-004	0.00000E+000	...........
	15	4	-6.96134E-004	-6.76316E-004	0.00000E+000	...........
	16	4.25	-6.95380E-004	-6.56129E-004	0.00000E+000	...........
	17	4.5	-6.85707E-004	-6.51824E-004	0.00000E+000	...........
	18	4.75	-6.73395E-004	-6.52110E-004	0.00000E+000	...........
	19	5	-6.62885E-004	-6.47173E-004	0.00000E+000	...........
	20	5.25	-6.55809E-004	-6.56094E-004	0.00000E+000	...........
	21	5.5	-6.52305E-004	-6.55100E-004	0.00000E+000	...........
	22	5.75	-6.52080E-004	-6.73373E-004	0.00000E+000	...........
	23	6	-6.54990E-004	-6.75503E-004	0.00000E+000	...........
	24	6.25	-6.61105E-004	-7.07514E-004	0.00000E+000	...........
	25	6.5	-6.71213E-004	-7.39605E-004	0.00000E+000	...........
	26	6.75	-6.86947E-004	-7.66853E-004	0.00000E+000	...........
	27	7	-7.08173E-004	-7.56434E-004	0.00000E+000	...........
	28	7.25	-7.30743E-004	-7.82162E-004	0.00000E+000	...........
	29	7.5	-7.50036E-004	-7.93382E-004	0.00000E+000	...........
	30	7.75	-7.65776E-004	-8.21294E-004	0.00000E+000	...........
	31	8	-7.81052E-004	-8.41830E-004	0.00000E+000	...........
	32	8.25	-7.97851E-004	-8.32731E-004	0.00000E+000	...........
	33	8.5	-8.14904E-004	-8.65711E-004	0.00000E+000	...........
	34	8.75	-8.30893E-004	-9.01821E-004	0.00000E+000	...........
	35	9	-8.48320E-004	-9.34517E-004	0.00000E+000	...........
	36	9.25	-8.71039E-004	-9.73566E-004	0.00000E+000	...........
	37	9.5	-8.99614E-004	-9.88804E-004	0.00000E+000	...........
	38	9.75	-9.29048E-004	-9.17424E-004	0.00000E+000	...........
	39	10	-9.49374E-004	-9.36008E-004	0.00000E+000	...........
EOC	QUANT	-0.0009494	Open Circuit (V)
PSTATMODEL	IQUANT	48	Pstat Model
PSTATSECTION	LABEL	IFC1000-05175	Pstat Section
PSTATSERIALNO	LABEL	05175	Pstat Serial Number
CTRLMODE	IQUANT	1	Control Mode
IESTAB	IQUANT	0	I/E Stability
CASPEED	IQUANT	1	Control Amp Speed
CONVENTION	IQUANT	1	Current Convention
ICHRANGE	IQUANT	2	Ich Range
ICHRANGEMODE	TOGGLE	F	Ich Auto Range
ICHOFFSETENABLE	TOGGLE	T	Ich Offset Enable
ICHOFFSET	QUANT	0	Ich Offset (V)
ICHFILTER	IQUANT	4	Ich Filter
VCHRANGE	IQUANT	2	Vch Range
VCHRANGEMODE	TOGGLE	F	Vch Auto Range
VCHOFFSETENABLE	TOGGLE	T	Vch Offset Enable
VCHOFFSET	QUANT	0	Vch Offset (V)
VCHFILTER	IQUANT	4	Vch Filter
IERANGELOWERLIMIT	IQUANT	4	I/E Range Lower Limit
IERANGEMODE	TOGGLE	F	I/E AutoRange
IERANGE	IQUANT	8	I/E Range
ACHSELECT	IQUANT	4	Ach Select
CABLEID	IQUANT	14	Cable ID
DCCALDATE	LABEL	27.2.2015	DC Calibration Date
ACCALDATE	LABEL	27.2.2015	AC Calibration Date
FRAMEWORKVERSION	QUANT	6.2	Framework Version
INSTRUMENTVERSION	LABEL	3.20	Instrument Version
ZCURVE	TABLE
	Pt	Time	Freq	Zreal	Zimag	Zsig	Zmod	Zphz	Idc	Vdc	IERange
	#	s	Hz	ohm	ohm	V	ohm	°	A	V	#
	0	2	1000020	3288.613	-12374.15	1	12803.69	-75.11684	1.711776E-006	-0.0005983	9
	1	3	794355.5	5016.843	-15030.29	1	15845.45	-71.54191	1.849106E-006	-0.0005168	9
	2	4	630996.1	7893.646	-18188.08	1	19827.15	-66.53911	1.997859E-006	-0.0006603	9
	3	6	501269.5	11430.65	-20970.79	1	23883.75	-61.4063	1.979014E-006	-0.0007305	9
	4	7	398144.5	15416.46	-22932.7	1	27632.88	-56.08912	1.748742E-006	-0.000766	9
	5	9	316230.5	20643.86	-24424.88	1	31980.36	-49.79558	1.76077E-006	-0.0007944	9
	6	10	251191.4	26781.34	-24517.63	1	36309.14	-42.4733	1.056141E-006	-0.0014267	8
	7	12	199628.9	32072.78	-23614.14	1	39828.26	-36.363	1.050852E-006	-0.0014133	8
	8	13	158496.1	36837.52	-21713.9	1	42760.93	-30.51725	1.038751E-006	-0.0014396	8
	9	14	125918	40798.33	-19108.84	1	45051.65	-25.09712	1.035081E-006	-0.00144	8
	10	16	100019.5	43654.74	-16482.44	1	46662.7	-20.68471	-9.64427E-008	-0.0010158	8
	11	17	79511.72	45807.09	-13779.12	1	47834.65	-16.74169	-9.660643E-008	-0.0010167	8
	12	19	63105.47	47613.08	-10971.24	1	48860.75	-12.97588	-1.186193E-007	-0.0010073	8
	13	20	50214.84	48539.36	-9039.81	1	49373.96	-10.54972	-1.118248E-007	-0.0010127	8
	14	21	39902.34	49093.66	-7413.059	1	49650.19	-8.586696	-1.066079E-007	-0.0010146	8
	15	23	31699.22	49489.51	-5955.57	1	49846.57	-6.861979	-1.087511E-007	-0.0010192	8
	16	24	25136.72	49931.38	-5206.589	1	50202.1	-5.952997	-1.049033E-007	-0.0010172	8
	17	26	19980.47	49961.91	-3982.277	1	50120.37	-4.557198	-9.593479E-008	-0.0010229	8
	18	27	15878.91	50091.13	-3213.273	1	50194.09	-3.670411	-9.799606E-008	-0.0010216	8
	19	28	12597.66	50206.76	-2557.649	1	50271.87	-2.91626	-9.778649E-008	-0.0010195	8
	20	30	10019.53	50276.31	-2125.345	1	50321.21	-2.42064	-1.049805E-007	-0.0010191	8
	21	31	7928.241	50347.79	-1356.383	1	50366.05	-1.54319	-9.909811E-009	-0.0007323	7
	22	32	6307.871	50393.72	-1156.848	1	50407	-1.315062	-9.208177E-009	-0.0007358	7
	23	34	5034.722	50448.15	-979.056	1	50457.65	-1.111809	1.105941E-008	-0.0010129	7
	24	35	3993.056	50487.44	-849.5699	1	50494.59	-0.964045	1.114527E-008	-0.0010102	7
	25	37	3144.055	50536.09	-734.6522	1	50541.43	-0.8328604	1.130704E-008	-0.0010135	7
	26	38	2519.531	50574.86	-674.1468	1	50579.35	-0.7636893	1.032198E-008	-0.0010126	7
	27	39	2000.762	50621.07	-626.5782	1	50624.95	-0.7091602	1.240809E-008	-0.0010136	7
	28	41	1580.669	50674.73	-591.8199	1	50678.18	-0.6691154	1.21687E-008	-0.0010109	7
	29	42	1253.634	50731.53	-551.6818	1	50734.53	-0.6230403	1.267421E-008	-0.001013	7
	30	44	1000.702	50787.79	-558.6021	1	50790.86	-0.6301564	1.238153E-008	-0.0010051	7
	31	45	790.0281	50848.93	-557.2139	1	50851.98	-0.6278348	1.323801E-008	-0.0010066	7
	32	46	628.811	50908.94	-560.6569	1	50912.02	-0.6309693	1.29165E-008	-0.0010154	7
	33	48	502.2321	50972.35	-575.6438	1	50975.6	-0.6470284	1.495874E-008	-0.0010216	7
	34	49	400.1524	51046.41	-590.7589	1	51049.82	-0.6630531	1.373176E-008	-0.0009966	7
	35	50	315.5048	51111.46	-619.1219	1	51115.21	-0.6939997	1.434338E-008	-0.0010205	7
	36	52	252.0161	51190.74	-650.3188	1	51194.87	-0.727837	1.324039E-008	-0.0009962	7
	37	53	200.3205	51272.52	-687.0628	1	51277.12	-0.7677298	1.271947E-008	-0.000997	7
	38	55	158.0056	51360.93	-738.9838	1	51366.25	-0.8243178	1.608281E-008	-0.0010203	7
	39	56	125.558	51450.77	-794.5834	1	51456.9	-0.8847809	1.350724E-008	-0.0009969	7
	40	57	99.734	51549.56	-861.6296	1	51556.76	-0.957586	1.553802E-008	-0.001013	7
	41	59	79.44915	51652.25	-938.7972	1	51660.79	-1.041255	8.721959E-009	-0.0010411	7
	42	60	63.34459	51775.67	-1025.645	1	51785.82	-1.134847	8.138599E-009	-0.0010462	7
	43	61	49.86702	51892.98	-1170.999	1	51906.19	-1.292698	6.764441E-009	-0.0010457	7
	44	63	38.42213	52045.56	-1278.971	1	52061.27	-1.407707	3.36639E-009	-0.0010233	7
	45	64	31.25	52186.06	-1409.372	1	52205.09	-1.546993	5.968009E-009	-0.0010473	7
	46	65	24.93351	52346.45	-1575.184	1	52370.15	-1.723597	3.663427E-009	-0.0010423	7
	47	67	20.03205	52518.03	-1752.99	1	52547.28	-1.911756	-6.805728E-011	-0.0010213	7
	48	68	15.625	52744.55	-1992.146	1	52782.16	-2.163016	-2.355996E-011	-0.0010475	7
	49	70	12.46675	52967.94	-2240.472	1	53015.3	-2.42209	5.290214E-010	-0.0010443	7
	50	71	9.9734	53216.48	-2520.251	1	53276.12	-2.711415	-2.848508E-010	-0.0010427	7
	51	73	7.971939	53498.85	-2841.501	1	53574.25	-3.040312	-1.355174E-009	-0.0010474	7
	52	75	6.351626	53823.52	-3213.276	1	53919.35	-3.416516	-4.836556E-009	-0.0010181	7
	53	77	5.013369	54199.96	-3656.233	1	54323.14	-3.859224	-2.166504E-009	-0.0010456	7
	54	79	3.985969	54621.88	-4147.881	1	54779.15	-4.342597	-1.838509E-009	-0.0010449	7
	55	82	3.175813	55093.77	-4710.478	1	55294.77	-4.886864	-3.504194E-009	-0.0010172	7
	56	84	2.516103	55634	-5301.007	1	55885.98	-5.442915	-2.560338E-009	-0.00103	7
	57	88	1.99553	56259.77	-6058.922	1	56585.09	-6.146804	-1.900829E-009	-0.0010298	7
	58	91	1.587906	56971.5	-6906.612	1	57388.61	-6.912194	1.011347E-009	-0.0010327	7
	59	96	1.258052	57787.02	-7885.031	1	58322.49	-7.770017	1.923357E-009	-0.0010319	7
	60	101	0.997765	58765.26	-8994.612	1	59449.63	-8.702156	3.617001E-010	-0.0010309	7
	61	106	0.7927448	59841.76	-10233.74	1	60710.5	-9.70446	5.115133E-009	-0.0010327	7
	62	113	0.6290258	61078.5	-11653.61	1	62180.3	-10.80205	9.667287E-009	-0.0010306	7
	63	120	0.4988825	62533.46	-13229.79	1	63917.61	-11.94554	1.22535E-008	-0.0010313	7
	64	129	0.3985969	64138.11	-14961.25	1	65859.98	-13.13038	1.74768E-008	-0.0010329	7
	65	141	0.316723	66059.63	-16919.54	1	68191.98	-14.36608	2.039036E-008	-0.001034	7
	66	154	0.2514753	68300.12	-19085.27	1	70916.52	-15.61209	2.299978E-008	-0.0010332	7
	67	172	0.1999787	70883.29	-21424.01	1	74050.18	-16.8171	2.682335E-008	-0.001034	7
	68	193	0.1587906	73884.76	-23948.46	1	77669.09	-17.9592	3.259846E-008	-0.0010341	7
	69	218	0.1260081	77425.38	-26626.59	1	81875.91	-18.97809	3.573896E-008	-0.0010337	7
	70	249	0.1001603	81544.64	-29470.48	1	86706.62	-19.87001	3.192002E-008	-0.0010332	7
