EXPLAIN
TAG	EISPOT
TITLE	LABEL	Potentiostatic EIS	Test &Identifier
DATE	LABEL	7/8/2016	Date
TIME	LABEL	13:55:29	Time
NOTES	NOTES	1	&Notes...
	
PSTAT	PSTAT	IFC1000-05175	Potentiostat
VDC	POTEN	0.00000E+000	T	DC &Voltage (V)
FREQINIT	QUANT	1.00000E+006	Initial Fre&q. (Hz)
FREQFINAL	QUANT	1.00000E+000	Final Fre&q. (Hz)
PTSPERDEC	QUANT	1.00000E+001	Points/&decade
VAC	QUANT	1.00000E+002	AC &Voltage (mV rms)
AREA	QUANT	0.00000E+000	&Area (cm^2)
CONDIT	TWOPARAM	F	1.50000E+001	0.00000E+000	Conditionin&g	Time(s)	E(V)
DELAY	TWOPARAM	F	6.00000E+001	0.00000E+000	Init. De&lay	Time(s)	Stab.(mV/s)
SPEED	SELECTOR	0	&Optimize for:
ZGUESS	QUANT	1.00000E+002	E&stimated Z (ohms)
OCVCURVE	TABLE	40
	Pt	T	Vf	Vm	Ach	Over
	#	s	V vs. Ref.	V	V	bits
	0	0.25	-2.51860E-002	-2.51860E-002	0.00000E+000	...........
	1	0.5	-2.51857E-002	-2.51684E-002	0.00000E+000	...........
	2	0.75	-2.51836E-002	-2.51514E-002	0.00000E+000	...........
	3	1	-2.51777E-002	-2.51353E-002	0.00000E+000	...........
	4	1.25	-2.51673E-002	-2.51225E-002	0.00000E+000	...........
	5	1.5	-2.51535E-002	-2.51072E-002	0.00000E+000	...........
	6	1.75	-2.51385E-002	-2.50959E-002	0.00000E+000	...........
	7	2	-2.51238E-002	-2.50823E-002	0.00000E+000	...........
	8	2.25	-2.51098E-002	-2.50700E-002	0.00000E+000	...........
	9	2.5	-2.50965E-002	-2.50587E-002	0.00000E+000	...........
	10	2.75	-2.50838E-002	-2.50478E-002	0.00000E+000	...........
	11	3	-2.50716E-002	-2.50386E-002	0.00000E+000	...........
	12	3.25	-2.50601E-002	-2.50277E-002	0.00000E+000	...........
	13	3.5	-2.50493E-002	-2.50165E-002	0.00000E+000	...........
	14	3.75	-2.50388E-002	-2.50083E-002	0.00000E+000	...........
	15	4	-2.50285E-002	-2.50010E-002	0.00000E+000	...........
	16	4.25	-2.50187E-002	-2.49920E-002	0.00000E+000	...........
	17	4.5	-2.50096E-002	-2.49842E-002	0.00000E+000	...........
	18	4.75	-2.50011E-002	-2.49762E-002	0.00000E+000	...........
	19	5	-2.49929E-002	-2.49707E-002	0.00000E+000	...........
	20	5.25	-2.49851E-002	-2.49639E-002	0.00000E+000	...........
	21	5.5	-2.49778E-002	-2.49583E-002	0.00000E+000	...........
	22	5.75	-2.49711E-002	-2.49555E-002	0.00000E+000	...........
	23	6	-2.49651E-002	-2.49485E-002	0.00000E+000	...........
	24	6.25	-2.49596E-002	-2.49436E-002	0.00000E+000	...........
	25	6.5	-2.49545E-002	-2.49387E-002	0.00000E+000	...........
	26	6.75	-2.49493E-002	-2.49349E-002	0.00000E+000	...........
	27	7	-2.49444E-002	-2.49324E-002	0.00000E+000	...........
	28	7.25	-2.49398E-002	-2.49281E-002	0.00000E+000	...........
	29	7.5	-2.49358E-002	-2.49263E-002	0.00000E+000	...........
	30	7.75	-2.49323E-002	-2.49223E-002	0.00000E+000	...........
	31	8	-2.49290E-002	-2.49204E-002	0.00000E+000	...........
	32	8.25	-2.49260E-002	-2.49167E-002	0.00000E+000	...........
	33	8.5	-2.49230E-002	-2.49139E-002	0.00000E+000	...........
	34	8.75	-2.49201E-002	-2.49106E-002	0.00000E+000	...........
	35	9	-2.49171E-002	-2.49088E-002	0.00000E+000	...........
	36	9.25	-2.49142E-002	-2.49071E-002	0.00000E+000	...........
	37	9.5	-2.49115E-002	-2.49062E-002	0.00000E+000	...........
	38	9.75	-2.49093E-002	-2.49046E-002	0.00000E+000	...........
	39	10	-2.49076E-002	-2.49029E-002	0.00000E+000	...........
EOC	QUANT	-0.0249076	Open Circuit (V)
PSTATMODEL	IQUANT	48	Pstat Model
PSTATSECTION	LABEL	IFC1000-05175	Pstat Section
PSTATSERIALNO	LABEL	05175	Pstat Serial Number
CTRLMODE	IQUANT	1	Control Mode
IESTAB	IQUANT	0	I/E Stability
CASPEED	IQUANT	1	Control Amp Speed
CONVENTION	IQUANT	1	Current Convention
ICHRANGE	IQUANT	2	Ich Range
ICHRANGEMODE	TOGGLE	F	Ich Auto Range
ICHOFFSETENABLE	TOGGLE	T	Ich Offset Enable
ICHOFFSET	QUANT	0	Ich Offset (V)
ICHFILTER	IQUANT	4	Ich Filter
VCHRANGE	IQUANT	2	Vch Range
VCHRANGEMODE	TOGGLE	F	Vch Auto Range
VCHOFFSETENABLE	TOGGLE	T	Vch Offset Enable
VCHOFFSET	QUANT	0	Vch Offset (V)
VCHFILTER	IQUANT	4	Vch Filter
IERANGELOWERLIMIT	IQUANT	4	I/E Range Lower Limit
IERANGEMODE	TOGGLE	F	I/E AutoRange
IERANGE	IQUANT	9	I/E Range
ACHSELECT	IQUANT	4	Ach Select
CABLEID	IQUANT	14	Cable ID
DCCALDATE	LABEL	27.2.2015	DC Calibration Date
ACCALDATE	LABEL	27.2.2015	AC Calibration Date
FRAMEWORKVERSION	QUANT	6.2	Framework Version
INSTRUMENTVERSION	LABEL	3.20	Instrument Version
ZCURVE	TABLE
	Pt	Time	Freq	Zreal	Zimag	Zsig	Zmod	Zphz	Idc	Vdc	IERange
	#	s	Hz	ohm	ohm	V	ohm	°	A	V	#
	0	1	1000020	205.444	1.935651	1	205.4532	0.5398129	6.384703E-007	-0.0244156	10
	1	2	794355.5	205.3544	1.010214	1	205.3569	0.2818569	4.879067E-007	-0.0243522	10
	2	2	630996.1	205.3526	0.2528032	1	205.3528	0.070535	4.201858E-007	-0.0245109	10
	3	2	501269.5	205.4446	-0.4356672	1	205.4451	-0.1215016	3.654878E-007	-0.0245966	10
	4	2	398144.5	205.6112	-1.060251	1	205.6139	-0.2954476	3.469927E-007	-0.0246556	10
	5	3	316230.5	205.8197	-1.659408	1	205.8264	-0.4619336	1.961245E-007	-0.024685	10
	6	3	251191.4	206.0367	-2.208151	1	206.0485	-0.614031	3.078559E-007	-0.0247149	10
	7	3	199628.9	206.2079	-2.834551	1	206.2274	-0.7875428	2.167703E-007	-0.0247342	10
	8	3	158496.1	206.4316	-3.505919	1	206.4614	-0.972986	1.206277E-007	-0.0247782	10
	9	4	125918	206.6096	-4.310774	1	206.6546	-1.195265	7.393497E-008	-0.0247842	10
	10	4	100019.5	206.8137	-5.298648	1	206.8816	-1.467619	-1.294664E-006	-0.0249971	10
	11	4	79511.72	207.2933	-6.107301	1	207.3832	-1.687568	-1.259438E-006	-0.0250011	10
	12	4	63105.47	207.1584	-8.102624	1	207.3168	-2.239879	-1.314002E-006	-0.0250047	10
	13	5	50214.84	207.5406	-9.99747	1	207.7812	-2.757873	-1.363083E-006	-0.0250054	10
	14	5	39902.34	208.0396	-12.31887	1	208.404	-3.38876	-1.37832E-006	-0.0250051	10
	15	5	31699.22	208.6679	-15.11007	1	209.2142	-4.141676	-1.378538E-006	-0.0250099	10
	16	5	25136.72	209.4837	-18.52483	1	210.3012	-5.053569	-1.272046E-006	-0.0250057	10
	17	6	19980.47	210.5075	-22.58248	1	211.7154	-6.123065	-1.303385E-006	-0.0250071	10
	18	6	15878.91	211.7632	-27.51361	1	213.543	-7.402762	-1.302672E-006	-0.0250066	10
	19	6	12597.66	213.3338	-33.51286	1	215.95	-8.927702	-1.351816E-006	-0.0250067	10
	20	6	10019.53	215.2673	-40.72432	1	219.0856	-10.71263	-1.357902E-006	-0.0250063	10
	21	7	7928.241	217.7465	-49.6577	1	223.337	-12.84676	-1.447321E-006	-0.0249923	10
	22	7	6307.871	220.8186	-60.2189	1	228.8824	-15.25407	-1.439228E-006	-0.0249926	10
	23	7	5034.722	224.628	-72.73363	1	236.11	-17.94174	-1.208113E-006	-0.0249736	10
	24	7	3993.056	229.5596	-88.18652	1	245.9156	-21.01454	-1.195683E-006	-0.0249723	10
	25	7	3144.055	235.9991	-107.4005	1	259.2883	-24.46974	-1.173409E-006	-0.0249734	10
	26	8	2519.531	243.5156	-128.7376	1	275.451	-27.86374	-1.21679E-006	-0.0249723	10
	27	8	2000.762	253.3865	-155.2366	1	297.1584	-31.49361	-1.201896E-006	-0.0249698	10
	28	8	1580.669	266.3191	-187.6741	1	325.8028	-35.17222	-1.177292E-006	-0.0249704	10
	29	8	1253.634	282.3564	-225.352	1	361.2599	-38.59378	8.896919E-008	-0.0249733	9
	30	9	1000.702	302.9117	-268.9434	1	405.0753	-41.60061	1.180886E-007	-0.0249726	9
	31	9	790.0281	330.9618	-322.4909	1	462.0997	-44.25729	1.140594E-007	-0.0249711	9
	32	9	628.811	366.1991	-382.3584	1	529.4334	-46.23666	1.215559E-007	-0.0249741	9
	33	9	502.2321	410.9135	-449.2912	1	608.8616	-47.55453	1.349085E-007	-0.0249663	9
	34	9	400.1524	468.5663	-524.3701	1	703.22	-48.21668	1.141914E-007	-0.0249694	9
	35	10	315.5048	545.1763	-610.1458	1	818.2268	-48.21864	1.397162E-007	-0.0249683	9
	36	10	252.0161	635.2863	-695.5086	1	941.9771	-47.59103	1.182648E-007	-0.0249698	9
	37	10	200.3205	746.8961	-783.6753	1	1082.59	-46.37654	1.269324E-007	-0.024973	9
	38	10	158.0056	883.647	-871.5917	1	1241.171	-44.60649	1.681946E-007	-0.0249683	9
	39	11	125.558	1035.908	-948.9807	1	1404.874	-42.49236	1.128506E-007	-0.0249712	9
	40	11	99.734	1205.372	-1014.667	1	1575.585	-40.09025	1.580927E-007	-0.0249698	9
	41	11	79.44915	1385.603	-1066.444	1	1748.485	-37.58408	-1.546046E-007	-0.0249845	9
	42	11	63.34459	1572.792	-1100.95	1	1919.835	-34.99191	-1.151012E-007	-0.0249919	9
	43	12	49.86702	1774.282	-1119.501	1	2097.942	-32.25029	-9.028594E-008	-0.024997	9
	44	12	38.42213	1994.058	-1119.955	1	2287.043	-29.32059	-1.004362E-007	-0.0249933	9
	45	12	31.25	2166.268	-1106.168	1	2432.349	-27.05036	-6.103883E-008	-0.0249925	9
	46	12	24.93351	2341.542	-1087.542	1	2581.775	-24.91277	-6.489726E-008	-0.0249922	9
	47	13	20.03205	2507.441	-1056.45	1	2720.909	-22.84695	-8.514219E-008	-0.024996	9
	48	13	15.625	2683.733	-1014.708	1	2869.156	-20.7114	-4.266195E-008	-0.024995	9
	49	13	12.46675	2833.134	-971.615	1	2995.11	-18.92926	-1.016091E-008	-0.0249919	9
	50	14	9.9734	2969.823	-926.7385	1	3111.059	-17.33063	1.336512E-008	-0.0249924	9
	51	14	7.971939	3094.117	-880.849	1	3217.057	-15.89086	-1.274434E-007	-0.0249913	8
	52	15	6.351626	3211.664	-836.4666	1	3318.805	-14.59817	-1.094502E-007	-0.0249937	8
	53	16	5.013369	3323.895	-793.7421	1	3417.353	-13.43064	-8.620436E-008	-0.0249935	8
	54	17	3.985969	3423.828	-756.6295	1	3506.435	-12.46148	-7.620124E-008	-0.0249926	8
	55	18	3.175813	3515.157	-724.9721	1	3589.139	-11.65339	-5.725575E-008	-0.0249931	8
	56	19	2.516103	3603.054	-696.3169	1	3669.721	-10.93799	-5.586435E-008	-0.02499	8
	57	21	1.99553	3684.432	-676.0975	1	3745.951	-10.39816	-4.290854E-008	-0.0249928	8
	58	23	1.587906	3761.061	-661.6799	1	3818.822	-9.97789	-2.500116E-008	-0.0249933	8
	59	26	1.258052	3835.934	-652.6395	1	3891.057	-9.65575	-1.0458E-008	-0.0249922	8
	60	29	0.997765	3910.414	-648.9345	1	3963.894	-9.422384	-2.910469E-008	-0.0249914	8
